!Keysight Technologies,E5071C,MY46733702,B.14.02
!Date: Sat Jan 27 12:01:24 2024
!Data & Calibration Information:
!Freq	S33:SOLT2(ON)	S43:SOLT2(ON)	S34:SOLT2(ON)	S44:SOLT2(ON)
!PortZ  Port3:50+j0    Port4:50+j0
!Above PortZ is port z conversion or system Z0 setting when saving the data.
!When reading, reference impedance value at option line is always used.
# Hz S dB R 50
100000	-1.250328e+001	4.414901e-001	-2.346516e+000	-3.606707e-001	-2.345839e+000	-3.384726e-001	-1.249985e+001	8.985298e-001
42599500	-1.242959e+001	-1.921753e-001	-2.385892e+000	-7.715558e-002	-2.397013e+000	-8.085373e-002	-1.246593e+001	-2.492534e-001
85099000	-1.241038e+001	-1.313164e-001	-2.385085e+000	-1.797077e-001	-2.403012e+000	-1.659460e-001	-1.248610e+001	-3.288686e-001
127598500	-1.240694e+001	-1.426267e-001	-2.386691e+000	-2.556201e-001	-2.402353e+000	-2.883730e-001	-1.249005e+001	-4.178040e-001
170098000	-1.242532e+001	-1.609305e-001	-2.380203e+000	-3.196616e-001	-2.403272e+000	-3.601680e-001	-1.250991e+001	-4.385772e-001
212597500	-1.240896e+001	-2.017534e-001	-2.386154e+000	-4.120109e-001	-2.404042e+000	-4.540912e-001	-1.252279e+001	-4.108283e-001
255097000	-1.240729e+001	-2.062230e-001	-2.386697e+000	-4.637277e-001	-2.408641e+000	-5.193759e-001	-1.251185e+001	-4.724339e-001
297596500	-1.242677e+001	-2.490530e-001	-2.381058e+000	-5.381872e-001	-2.408052e+000	-6.170716e-001	-1.253836e+001	-5.429467e-001
340096000	-1.242955e+001	-2.615532e-001	-2.387328e+000	-6.129966e-001	-2.407351e+000	-6.975081e-001	-1.253029e+001	-6.489391e-001
382595500	-1.241593e+001	-2.429840e-001	-2.381390e+000	-6.846947e-001	-2.409507e+000	-7.478567e-001	-1.254306e+001	-6.493940e-001
425095000	-1.242710e+001	-2.256477e-001	-2.380950e+000	-7.558193e-001	-2.406584e+000	-8.713803e-001	-1.255265e+001	-8.890214e-001
467594500	-1.243197e+001	-2.311946e-001	-2.381229e+000	-8.448985e-001	-2.405031e+000	-9.576604e-001	-1.256631e+001	-8.150368e-001
510094000	-1.243997e+001	-2.192039e-001	-2.378336e+000	-9.095712e-001	-2.409189e+000	-1.051296e+000	-1.256725e+001	-8.411241e-001
552593500	-1.243511e+001	-2.194231e-001	-2.380645e+000	-9.847273e-001	-2.410336e+000	-1.131223e+000	-1.256649e+001	-8.006021e-001
595093000	-1.242963e+001	-2.671647e-001	-2.381208e+000	-1.058504e+000	-2.411958e+000	-1.220820e+000	-1.258841e+001	-9.048126e-001
637592500	-1.243848e+001	-1.919222e-001	-2.380609e+000	-1.132150e+000	-2.412257e+000	-1.299004e+000	-1.257478e+001	-9.538598e-001
680092000	-1.243089e+001	-2.519673e-001	-2.378993e+000	-1.206791e+000	-2.415043e+000	-1.375481e+000	-1.258298e+001	-9.026089e-001
722591500	-1.242595e+001	-2.910679e-001	-2.380789e+000	-1.262899e+000	-2.412118e+000	-1.475327e+000	-1.258445e+001	-1.062387e+000
765091000	-1.243480e+001	-1.757144e-001	-2.379786e+000	-1.345426e+000	-2.414711e+000	-1.552546e+000	-1.258830e+001	-1.053222e+000
807590500	-1.244303e+001	-2.457306e-001	-2.381996e+000	-1.430760e+000	-2.414331e+000	-1.619652e+000	-1.260241e+001	-1.166962e+000
850090000	-1.243327e+001	-2.721167e-001	-2.381417e+000	-1.511063e+000	-2.415385e+000	-1.696424e+000	-1.260554e+001	-1.201119e+000
892589500	-1.242109e+001	-2.764571e-001	-2.381660e+000	-1.582058e+000	-2.414499e+000	-1.805321e+000	-1.260243e+001	-1.256417e+000
935089000	-1.245140e+001	-3.540963e-001	-2.384165e+000	-1.689761e+000	-2.417355e+000	-1.882771e+000	-1.260327e+001	-1.188675e+000
977588500	-1.243964e+001	-2.486619e-001	-2.383669e+000	-1.744654e+000	-2.417846e+000	-1.940750e+000	-1.260624e+001	-1.253559e+000
1020088000	-1.244197e+001	-2.952712e-001	-2.386976e+000	-1.811904e+000	-2.416830e+000	-2.043769e+000	-1.260325e+001	-1.234222e+000
1062587500	-1.243757e+001	-2.971251e-001	-2.387629e+000	-1.903616e+000	-2.417059e+000	-2.122024e+000	-1.260890e+001	-1.293323e+000
1105087000	-1.244804e+001	-3.653383e-001	-2.386984e+000	-1.980334e+000	-2.418236e+000	-2.189989e+000	-1.261440e+001	-1.430197e+000
1147586500	-1.245355e+001	-4.309725e-001	-2.390439e+000	-2.039137e+000	-2.421569e+000	-2.286001e+000	-1.261225e+001	-1.396204e+000
1190086000	-1.246149e+001	-3.563294e-001	-2.390488e+000	-2.130681e+000	-2.418620e+000	-2.355681e+000	-1.260614e+001	-1.387355e+000
1232585500	-1.246287e+001	-4.640887e-001	-2.392877e+000	-2.214824e+000	-2.420562e+000	-2.431916e+000	-1.261199e+001	-1.450868e+000
1275085000	-1.245862e+001	-4.330356e-001	-2.393017e+000	-2.285634e+000	-2.422589e+000	-2.519865e+000	-1.261821e+001	-1.387038e+000
1317584500	-1.247039e+001	-4.092849e-001	-2.392384e+000	-2.357238e+000	-2.419855e+000	-2.621524e+000	-1.262624e+001	-1.599920e+000
1360084000	-1.245720e+001	-5.305179e-001	-2.396422e+000	-2.431841e+000	-2.422996e+000	-2.678540e+000	-1.262563e+001	-1.423943e+000
1402583500	-1.246262e+001	-5.078056e-001	-2.393259e+000	-2.490172e+000	-2.423863e+000	-2.751557e+000	-1.264382e+001	-1.573814e+000
1445083000	-1.246989e+001	-4.805081e-001	-2.399331e+000	-2.570000e+000	-2.424139e+000	-2.842347e+000	-1.261399e+001	-1.512737e+000
1487582500	-1.247498e+001	-6.823618e-001	-2.395037e+000	-2.667118e+000	-2.426053e+000	-2.901882e+000	-1.262082e+001	-1.681055e+000
1530082000	-1.247029e+001	-6.113135e-001	-2.403744e+000	-2.722973e+000	-2.425260e+000	-2.991162e+000	-1.262537e+001	-1.785883e+000
1572581500	-1.248007e+001	-6.313814e-001	-2.399816e+000	-2.825245e+000	-2.426002e+000	-3.083156e+000	-1.262338e+001	-1.765148e+000
1615081000	-1.248198e+001	-6.160638e-001	-2.404062e+000	-2.901466e+000	-2.427916e+000	-3.151926e+000	-1.263656e+001	-1.818786e+000
1657580500	-1.248362e+001	-6.737554e-001	-2.403055e+000	-2.988879e+000	-2.427111e+000	-3.238229e+000	-1.263437e+001	-1.820952e+000
1700080000	-1.248366e+001	-6.890731e-001	-2.401128e+000	-3.053083e+000	-2.427869e+000	-3.292900e+000	-1.263418e+001	-1.744030e+000
1742579500	-1.248627e+001	-7.336788e-001	-2.409947e+000	-3.140497e+000	-2.429445e+000	-3.395122e+000	-1.263667e+001	-1.890790e+000
1785079000	-1.247509e+001	-7.579874e-001	-2.401372e+000	-3.206896e+000	-2.429791e+000	-3.463384e+000	-1.263304e+001	-1.864942e+000
1827578500	-1.250867e+001	-7.358022e-001	-2.409215e+000	-3.286611e+000	-2.429247e+000	-3.565139e+000	-1.264084e+001	-1.901544e+000
1870078000	-1.249089e+001	-8.223405e-001	-2.409330e+000	-3.364424e+000	-2.432412e+000	-3.639662e+000	-1.263530e+001	-2.001328e+000
1912577500	-1.250132e+001	-8.940696e-001	-2.404714e+000	-3.432861e+000	-2.433605e+000	-3.690077e+000	-1.262981e+001	-1.927213e+000
1955077000	-1.247775e+001	-8.663310e-001	-2.413654e+000	-3.535464e+000	-2.430779e+000	-3.804193e+000	-1.263989e+001	-2.022982e+000
1997576500	-1.249354e+001	-9.019458e-001	-2.407839e+000	-3.601257e+000	-2.434805e+000	-3.848883e+000	-1.262002e+001	-1.967488e+000
2040076000	-1.250433e+001	-8.714500e-001	-2.410563e+000	-3.643512e+000	-2.436933e+000	-3.928936e+000	-1.263924e+001	-2.027687e+000
2082575500	-1.249679e+001	-9.160535e-001	-2.414795e+000	-3.751599e+000	-2.430163e+000	-4.028444e+000	-1.263230e+001	-2.103896e+000
2125075000	-1.250407e+001	-9.112210e-001	-2.411882e+000	-3.812645e+000	-2.437138e+000	-4.080008e+000	-1.263200e+001	-2.052971e+000
2167574500	-1.250567e+001	-8.377404e-001	-2.418709e+000	-3.901158e+000	-2.436919e+000	-4.167235e+000	-1.263421e+001	-2.106230e+000
2210074000	-1.250323e+001	-1.025015e+000	-2.417280e+000	-3.975354e+000	-2.431968e+000	-4.196419e+000	-1.262189e+001	-1.995228e+000
2252573500	-1.250701e+001	-9.364115e-001	-2.417537e+000	-4.020235e+000	-2.437384e+000	-4.288805e+000	-1.262748e+001	-2.078435e+000
2295073000	-1.250524e+001	-1.058054e+000	-2.420483e+000	-4.134229e+000	-2.435608e+000	-4.361839e+000	-1.263920e+001	-2.060312e+000
2337572500	-1.250671e+001	-9.292380e-001	-2.416683e+000	-4.186963e+000	-2.431432e+000	-4.454284e+000	-1.262700e+001	-2.092600e+000
2380072000	-1.250688e+001	-9.839816e-001	-2.422703e+000	-4.274319e+000	-2.438858e+000	-4.515781e+000	-1.264239e+001	-2.117095e+000
2422571500	-1.249774e+001	-1.109731e+000	-2.420449e+000	-4.354747e+000	-2.438218e+000	-4.578170e+000	-1.261601e+001	-2.020812e+000
2465071000	-1.250873e+001	-1.087545e+000	-2.426096e+000	-4.424582e+000	-2.437734e+000	-4.669709e+000	-1.263113e+001	-2.185550e+000
2507570500	-1.249864e+001	-1.074317e+000	-2.423227e+000	-4.507656e+000	-2.441525e+000	-4.750174e+000	-1.263142e+001	-2.276130e+000
2550070000	-1.251410e+001	-1.047927e+000	-2.422739e+000	-4.568984e+000	-2.441410e+000	-4.801501e+000	-1.262349e+001	-2.172922e+000
2592569500	-1.250916e+001	-1.117484e+000	-2.423680e+000	-4.647988e+000	-2.439936e+000	-4.894219e+000	-1.263315e+001	-2.304784e+000
2635069000	-1.251656e+001	-1.106568e+000	-2.422945e+000	-4.728017e+000	-2.444431e+000	-4.993504e+000	-1.263106e+001	-2.330045e+000
2677568500	-1.251759e+001	-1.253254e+000	-2.426161e+000	-4.797498e+000	-2.445766e+000	-5.051192e+000	-1.262680e+001	-2.160549e+000
2720068000	-1.250685e+001	-1.179519e+000	-2.428334e+000	-4.881084e+000	-2.442219e+000	-5.129339e+000	-1.261926e+001	-2.293665e+000
2762567500	-1.252930e+001	-1.243164e+000	-2.426064e+000	-4.964893e+000	-2.447908e+000	-5.177780e+000	-1.260798e+001	-2.264146e+000
2805067000	-1.252046e+001	-1.183641e+000	-2.429859e+000	-5.044467e+000	-2.445126e+000	-5.254936e+000	-1.263255e+001	-2.431047e+000
2847566500	-1.251045e+001	-1.187978e+000	-2.427873e+000	-5.099139e+000	-2.443637e+000	-5.344317e+000	-1.262641e+001	-2.325162e+000
2890066000	-1.251239e+001	-1.283640e+000	-2.433540e+000	-5.159086e+000	-2.449583e+000	-5.397206e+000	-1.261989e+001	-2.249909e+000
2932565500	-1.251972e+001	-1.223979e+000	-2.433276e+000	-5.253740e+000	-2.444230e+000	-5.491154e+000	-1.261428e+001	-2.263251e+000
2975065000	-1.251145e+001	-1.272429e+000	-2.428850e+000	-5.303275e+000	-2.446026e+000	-5.526956e+000	-1.260721e+001	-2.323791e+000
3017564500	-1.251735e+001	-1.317240e+000	-2.437411e+000	-5.393860e+000	-2.447571e+000	-5.628891e+000	-1.263129e+001	-2.330377e+000
3060064000	-1.251596e+001	-1.262283e+000	-2.435807e+000	-5.467769e+000	-2.441788e+000	-5.691803e+000	-1.258641e+001	-2.369954e+000
3102563500	-1.252836e+001	-1.291930e+000	-2.435094e+000	-5.528064e+000	-2.449886e+000	-5.766127e+000	-1.259808e+001	-2.315654e+000
3145063000	-1.250253e+001	-1.332705e+000	-2.436095e+000	-5.621800e+000	-2.436061e+000	-5.763578e+000	-1.258499e+001	-2.214486e+000
3187562500	-1.250935e+001	-1.388875e+000	-2.438513e+000	-5.704278e+000	-2.445712e+000	-5.835858e+000	-1.259152e+001	-2.320511e+000
3230062000	-1.250444e+001	-1.436307e+000	-2.434927e+000	-5.759906e+000	-2.443916e+000	-5.911556e+000	-1.257958e+001	-2.176304e+000
3272561500	-1.251403e+001	-1.402061e+000	-2.440535e+000	-5.847534e+000	-2.444336e+000	-5.995855e+000	-1.257423e+001	-2.267087e+000
3315061000	-1.250513e+001	-1.397579e+000	-2.438950e+000	-5.906812e+000	-2.443967e+000	-6.050920e+000	-1.257645e+001	-2.150660e+000
3357560500	-1.251893e+001	-1.329642e+000	-2.440280e+000	-5.977689e+000	-2.445807e+000	-6.121257e+000	-1.258911e+001	-2.157480e+000
3400060000	-1.251622e+001	-1.365252e+000	-2.441459e+000	-6.044501e+000	-2.445656e+000	-6.198595e+000	-1.258811e+001	-2.174367e+000
3442559500	-1.252049e+001	-1.392908e+000	-2.438519e+000	-6.110346e+000	-2.448646e+000	-6.241011e+000	-1.258705e+001	-2.122929e+000
3485059000	-1.251048e+001	-1.550446e+000	-2.444393e+000	-6.202543e+000	-2.443790e+000	-6.317533e+000	-1.258571e+001	-2.032773e+000
3527558500	-1.251783e+001	-1.459480e+000	-2.442602e+000	-6.265328e+000	-2.445567e+000	-6.357870e+000	-1.257549e+001	-2.070930e+000
3570058000	-1.251234e+001	-1.586042e+000	-2.444543e+000	-6.344545e+000	-2.450320e+000	-6.411145e+000	-1.257128e+001	-1.904867e+000
3612557500	-1.251490e+001	-1.506245e+000	-2.449062e+000	-6.431748e+000	-2.439521e+000	-6.376146e+000	-1.253210e+001	-1.434894e+000
3655057000	-1.251549e+001	-1.470401e+000	-2.443396e+000	-6.487506e+000	-2.443949e+000	-6.457556e+000	-1.251574e+001	-1.482906e+000
3697556500	-1.251328e+001	-1.675000e+000	-2.448363e+000	-6.560323e+000	-2.438203e+000	-6.509868e+000	-1.252376e+001	-1.489700e+000
3740056000	-1.252349e+001	-1.529882e+000	-2.447244e+000	-6.639994e+000	-2.440509e+000	-6.579429e+000	-1.250686e+001	-1.367514e+000
3782555500	-1.251330e+001	-1.571516e+000	-2.445738e+000	-6.679845e+000	-2.442953e+000	-6.647707e+000	-1.249240e+001	-1.461352e+000
3825055000	-1.252606e+001	-1.606473e+000	-2.449557e+000	-6.804247e+000	-2.436108e+000	-6.715367e+000	-1.251323e+001	-1.344309e+000
3867554500	-1.251451e+001	-1.602505e+000	-2.446303e+000	-6.852842e+000	-2.445124e+000	-6.774887e+000	-1.249829e+001	-1.461919e+000
3910054000	-1.250674e+001	-1.608550e+000	-2.451505e+000	-6.929990e+000	-2.438824e+000	-6.852865e+000	-1.247861e+001	-1.479383e+000
3952553500	-1.251465e+001	-1.682722e+000	-2.449611e+000	-7.023655e+000	-2.436177e+000	-6.898621e+000	-1.249066e+001	-1.343078e+000
3995053000	-1.250931e+001	-1.724885e+000	-2.448528e+000	-7.107135e+000	-2.442399e+000	-7.006400e+000	-1.247183e+001	-1.452303e+000
4037552500	-1.251328e+001	-1.682292e+000	-2.454406e+000	-7.143529e+000	-2.430631e+000	-7.062541e+000	-1.248539e+001	-1.423468e+000
4080052000	-1.253487e+001	-1.640453e+000	-2.450460e+000	-7.237130e+000	-2.439033e+000	-7.130407e+000	-1.250065e+001	-1.410343e+000
4122551500	-1.250257e+001	-1.697373e+000	-2.453561e+000	-7.277416e+000	-2.434163e+000	-7.194085e+000	-1.245473e+001	-1.487224e+000
4165051000	-1.252627e+001	-1.692720e+000	-2.452957e+000	-7.386606e+000	-2.434898e+000	-7.246486e+000	-1.247907e+001	-1.482549e+000
4207550500	-1.252283e+001	-1.662867e+000	-2.450404e+000	-7.453852e+000	-2.440434e+000	-7.355237e+000	-1.248158e+001	-1.442946e+000
4250050000	-1.249201e+001	-1.723507e+000	-2.456103e+000	-7.507476e+000	-2.436867e+000	-7.403614e+000	-1.246285e+001	-1.557594e+000
4292549500	-1.254800e+001	-1.742440e+000	-2.452700e+000	-7.615668e+000	-2.439449e+000	-7.461686e+000	-1.246648e+001	-1.502364e+000
4335049000	-1.251063e+001	-1.731906e+000	-2.455471e+000	-7.645013e+000	-2.435073e+000	-7.553403e+000	-1.246169e+001	-1.561819e+000
4377548500	-1.252617e+001	-1.794361e+000	-2.456261e+000	-7.716895e+000	-2.436874e+000	-7.588884e+000	-1.247238e+001	-1.501804e+000
4420048000	-1.250953e+001	-1.786431e+000	-2.456532e+000	-7.812154e+000	-2.431082e+000	-7.665847e+000	-1.243280e+001	-1.424011e+000
4462547500	-1.251910e+001	-1.815778e+000	-2.459664e+000	-7.873189e+000	-2.431169e+000	-7.729416e+000	-1.245061e+001	-1.473419e+000
4505047000	-1.252853e+001	-1.969793e+000	-2.456410e+000	-7.964220e+000	-2.431976e+000	-7.792673e+000	-1.245152e+001	-1.378285e+000
4547546500	-1.251279e+001	-1.830270e+000	-2.456130e+000	-8.022139e+000	-2.434481e+000	-7.896410e+000	-1.242509e+001	-1.455281e+000
4590046000	-1.251362e+001	-1.779322e+000	-2.457373e+000	-8.084869e+000	-2.431227e+000	-7.947731e+000	-1.245584e+001	-1.416665e+000
4632545500	-1.252016e+001	-1.951220e+000	-2.457370e+000	-8.186033e+000	-2.438959e+000	-8.000684e+000	-1.244297e+001	-1.447896e+000
4675045000	-1.250213e+001	-1.822532e+000	-2.452865e+000	-8.251230e+000	-2.438663e+000	-8.099847e+000	-1.243822e+001	-1.519372e+000
4717544500	-1.253368e+001	-1.982247e+000	-2.462374e+000	-8.307089e+000	-2.431514e+000	-8.183067e+000	-1.242517e+001	-1.462873e+000
4760044000	-1.251364e+001	-1.946744e+000	-2.461447e+000	-8.397469e+000	-2.438059e+000	-8.252834e+000	-1.244030e+001	-1.455619e+000
4802543500	-1.252207e+001	-1.982933e+000	-2.460788e+000	-8.461961e+000	-2.432924e+000	-8.329972e+000	-1.243314e+001	-1.524683e+000
4845043000	-1.252451e+001	-1.889523e+000	-2.461405e+000	-8.545693e+000	-2.438983e+000	-8.372541e+000	-1.245533e+001	-1.464529e+000
4887542500	-1.249248e+001	-1.888424e+000	-2.459038e+000	-8.591292e+000	-2.442588e+000	-8.472268e+000	-1.243626e+001	-1.569437e+000
4930042000	-1.253555e+001	-1.829987e+000	-2.469173e+000	-8.675428e+000	-2.436987e+000	-8.546943e+000	-1.243489e+001	-1.546095e+000
4972541500	-1.251827e+001	-1.979653e+000	-2.461583e+000	-8.782427e+000	-2.444125e+000	-8.614142e+000	-1.243655e+001	-1.476619e+000
5015041000	-1.251467e+001	-1.923723e+000	-2.467269e+000	-8.827758e+000	-2.433995e+000	-8.685376e+000	-1.243911e+001	-1.536042e+000
5057540500	-1.252927e+001	-2.056489e+000	-2.463225e+000	-8.967695e+000	-2.438870e+000	-8.745096e+000	-1.244146e+001	-1.416458e+000
5100040000	-1.250464e+001	-1.956029e+000	-2.467297e+000	-8.962335e+000	-2.451573e+000	-8.826066e+000	-1.242904e+001	-1.489986e+000
5142539500	-1.252812e+001	-1.967151e+000	-2.470976e+000	-9.039972e+000	-2.432592e+000	-8.906592e+000	-1.243126e+001	-1.584145e+000
5185039000	-1.250854e+001	-2.138736e+000	-2.463079e+000	-9.156768e+000	-2.446124e+000	-8.959853e+000	-1.244572e+001	-1.544752e+000
5227538500	-1.250277e+001	-1.982563e+000	-2.466418e+000	-9.150962e+000	-2.442031e+000	-9.083302e+000	-1.242361e+001	-1.693998e+000
5270038000	-1.253091e+001	-2.048120e+000	-2.474674e+000	-9.294150e+000	-2.435640e+000	-9.116067e+000	-1.243581e+001	-1.633157e+000
5312537500	-1.249719e+001	-2.049156e+000	-2.468217e+000	-9.347552e+000	-2.448901e+000	-9.191546e+000	-1.245044e+001	-1.619333e+000
5355037000	-1.250828e+001	-1.899174e+000	-2.474308e+000	-9.371865e+000	-2.444055e+000	-9.266380e+000	-1.243860e+001	-1.798141e+000
5397536500	-1.251473e+001	-2.185177e+000	-2.469892e+000	-9.522428e+000	-2.453255e+000	-9.345041e+000	-1.247378e+001	-1.663040e+000
5440036000	-1.249803e+001	-2.025390e+000	-2.480254e+000	-9.575778e+000	-2.456552e+000	-9.461843e+000	-1.245188e+001	-1.767116e+000
5482535500	-1.253930e+001	-2.185584e+000	-2.475808e+000	-9.676691e+000	-2.451624e+000	-9.537579e+000	-1.245577e+001	-1.861583e+000
5525035000	-1.250219e+001	-2.077830e+000	-2.476572e+000	-9.741994e+000	-2.458406e+000	-9.624993e+000	-1.247758e+001	-1.836090e+000
5567534500	-1.251012e+001	-2.030267e+000	-2.478134e+000	-9.790679e+000	-2.463833e+000	-9.728998e+000	-1.247951e+001	-1.951250e+000
5610034000	-1.250917e+001	-2.166581e+000	-2.474428e+000	-9.875370e+000	-2.463220e+000	-9.767491e+000	-1.248515e+001	-1.876014e+000
5652533500	-1.250686e+001	-2.131875e+000	-2.476132e+000	-9.924471e+000	-2.466906e+000	-9.872883e+000	-1.247937e+001	-1.938876e+000
5695033000	-1.250759e+001	-2.094163e+000	-2.480726e+000	-1.001557e+001	-2.462653e+000	-9.946274e+000	-1.246166e+001	-2.091316e+000
5737532500	-1.250366e+001	-2.146980e+000	-2.480377e+000	-1.010529e+001	-2.463042e+000	-1.002544e+001	-1.249511e+001	-1.989779e+000
5780032000	-1.249699e+001	-2.001892e+000	-2.482012e+000	-1.018955e+001	-2.470810e+000	-1.012773e+001	-1.248556e+001	-1.992775e+000
5822531500	-1.249871e+001	-2.185728e+000	-2.483215e+000	-1.027276e+001	-2.467135e+000	-1.017797e+001	-1.249065e+001	-2.075854e+000
5865031000	-1.251264e+001	-2.095064e+000	-2.491689e+000	-1.034538e+001	-2.475058e+000	-1.028992e+001	-1.250405e+001	-2.048647e+000
5907530500	-1.250738e+001	-2.105607e+000	-2.483226e+000	-1.040035e+001	-2.475518e+000	-1.038004e+001	-1.248446e+001	-2.107652e+000
5950030000	-1.250759e+001	-2.201860e+000	-2.487562e+000	-1.049513e+001	-2.475357e+000	-1.043367e+001	-1.250865e+001	-2.061511e+000
5992529500	-1.247947e+001	-2.128300e+000	-2.485888e+000	-1.057963e+001	-2.484285e+000	-1.052192e+001	-1.250151e+001	-2.163214e+000
6035029000	-1.251160e+001	-2.313338e+000	-2.482302e+000	-1.061622e+001	-2.483275e+000	-1.062067e+001	-1.249448e+001	-2.158454e+000
6077528500	-1.248548e+001	-2.092720e+000	-2.490364e+000	-1.074575e+001	-2.485010e+000	-1.068183e+001	-1.249545e+001	-2.017417e+000
6120028000	-1.248085e+001	-2.184002e+000	-2.499033e+000	-1.076279e+001	-2.484245e+000	-1.076952e+001	-1.248622e+001	-2.245030e+000
6162527500	-1.249222e+001	-2.192601e+000	-2.498293e+000	-1.087445e+001	-2.481760e+000	-1.082755e+001	-1.249911e+001	-2.190618e+000
6205027000	-1.248180e+001	-2.306009e+000	-2.497220e+000	-1.093209e+001	-2.487884e+000	-1.091784e+001	-1.249754e+001	-2.308213e+000
6247526500	-1.248025e+001	-2.321466e+000	-2.496818e+000	-1.100402e+001	-2.492338e+000	-1.097232e+001	-1.251442e+001	-2.262361e+000
