!Keysight Technologies,E5071C,MY46733702,B.14.02
!Date: Sat Jan 27 12:03:12 2024
!Data & Calibration Information:
!Freq	S33:SOLT2(ON)	S43:SOLT2(ON)	S34:SOLT2(ON)	S44:SOLT2(ON)
!PortZ  Port3:50+j0    Port4:50+j0
!Above PortZ is port z conversion or system Z0 setting when saving the data.
!When reading, reference impedance value at option line is always used.
# Hz S dB R 50
100000	-6.228001e-003	-4.816275e-001	-7.926617e+001	1.480832e+002	-7.004095e+001	-9.069487e-002	-2.879401e-002	-2.253889e-002
42599500	-7.522961e-003	-9.813216e-002	-7.448936e+001	3.738305e+001	-5.184802e+001	4.421146e+001	-3.020259e-002	-2.208061e-001
85099000	-5.386275e-003	-1.818410e-001	-7.250241e+001	6.312501e+001	-4.879681e+001	4.428459e+001	-4.087091e-002	-3.791131e-001
127598500	-7.410872e-003	-2.477384e-001	-7.056990e+001	6.198462e+001	-4.716791e+001	4.378916e+001	-4.686965e-002	-5.001697e-001
170098000	-7.292647e-003	-3.437294e-001	-6.814903e+001	6.093288e+001	-4.596131e+001	4.372250e+001	-5.100947e-002	-6.046260e-001
212597500	-9.282586e-003	-4.072405e-001	-6.646106e+001	6.902507e+001	-4.504859e+001	4.390852e+001	-5.837617e-002	-7.358409e-001
255097000	-7.181363e-003	-4.957622e-001	-6.508363e+001	7.087871e+001	-4.424541e+001	4.298429e+001	-6.212280e-002	-8.403865e-001
297596500	-1.414780e-002	-5.787354e-001	-6.344200e+001	7.567560e+001	-4.360598e+001	4.311721e+001	-7.015232e-002	-9.344528e-001
340096000	-5.915411e-003	-6.467259e-001	-6.289727e+001	7.962485e+001	-4.302690e+001	4.309474e+001	-7.489283e-002	-1.012234e+000
382595500	-1.145025e-002	-7.419747e-001	-6.162106e+001	8.019878e+001	-4.262756e+001	4.294288e+001	-7.729700e-002	-1.122468e+000
425095000	-1.744266e-002	-8.225467e-001	-6.060058e+001	8.251493e+001	-4.215926e+001	4.306328e+001	-7.689352e-002	-1.231214e+000
467594500	-1.460643e-002	-9.016307e-001	-5.950202e+001	8.263357e+001	-4.177731e+001	4.280821e+001	-8.331974e-002	-1.325695e+000
510094000	-1.514957e-002	-9.768919e-001	-5.928297e+001	8.176708e+001	-4.144667e+001	4.270013e+001	-8.757883e-002	-1.413370e+000
552593500	-1.676146e-002	-1.062533e+000	-5.807664e+001	8.384360e+001	-4.115962e+001	4.289382e+001	-9.522825e-002	-1.531392e+000
595093000	-1.800506e-002	-1.119414e+000	-5.777453e+001	8.292398e+001	-4.090897e+001	4.297658e+001	-9.729088e-002	-1.614108e+000
637592500	-1.688241e-002	-1.186925e+000	-5.688810e+001	8.692752e+001	-4.060651e+001	4.282660e+001	-9.744872e-002	-1.702737e+000
680092000	-1.902220e-002	-1.283157e+000	-5.630141e+001	8.370897e+001	-4.041154e+001	4.286151e+001	-1.025688e-001	-1.814472e+000
722591500	-1.848538e-002	-1.347689e+000	-5.576027e+001	8.693765e+001	-4.011373e+001	4.264949e+001	-1.019760e-001	-1.880530e+000
765091000	-1.987727e-002	-1.431001e+000	-5.536542e+001	8.485968e+001	-3.993192e+001	4.277755e+001	-1.079714e-001	-1.997694e+000
807590500	-1.638130e-002	-1.504384e+000	-5.516859e+001	8.502420e+001	-3.974573e+001	4.284379e+001	-1.125806e-001	-2.074741e+000
850090000	-2.059199e-002	-1.597751e+000	-5.461499e+001	8.581802e+001	-3.954305e+001	4.303465e+001	-1.136856e-001	-2.153762e+000
892589500	-1.669822e-002	-1.645697e+000	-5.420849e+001	8.663278e+001	-3.933519e+001	4.272167e+001	-1.180785e-001	-2.262398e+000
935089000	-2.279306e-002	-1.717284e+000	-5.397655e+001	8.568421e+001	-3.916565e+001	4.282213e+001	-1.217829e-001	-2.347194e+000
977588500	-2.105425e-002	-1.827538e+000	-5.349527e+001	8.478159e+001	-3.892842e+001	4.286426e+001	-1.221396e-001	-2.440549e+000
1020088000	-1.784150e-002	-1.875734e+000	-5.301220e+001	8.708700e+001	-3.878761e+001	4.277162e+001	-1.255863e-001	-2.537054e+000
1062587500	-2.307222e-002	-1.952462e+000	-5.279529e+001	8.603795e+001	-3.859500e+001	4.307977e+001	-1.267887e-001	-2.634372e+000
1105087000	-2.673426e-002	-2.015293e+000	-5.244412e+001	8.688419e+001	-3.947774e+001	4.950244e+001	-1.075504e-001	-2.700723e+000
1147586500	-2.862285e-002	-2.083751e+000	-5.201923e+001	8.676103e+001	-3.947769e+001	5.239658e+001	-1.057983e-001	-2.775610e+000
1190086000	-2.565170e-002	-2.192224e+000	-5.186826e+001	8.645743e+001	-3.943932e+001	5.563585e+001	-9.953877e-002	-2.843823e+000
1232585500	-2.504436e-002	-2.229036e+000	-5.136937e+001	8.652920e+001	-3.937772e+001	5.919639e+001	-8.609416e-002	-2.964796e+000
1275085000	-2.514441e-002	-2.324551e+000	-5.122528e+001	8.762440e+001	-3.930712e+001	6.170369e+001	-8.362288e-002	-3.026157e+000
1317584500	-2.658257e-002	-2.397628e+000	-5.103272e+001	8.672911e+001	-3.941052e+001	6.352473e+001	-7.731014e-002	-3.105566e+000
1360084000	-2.027424e-002	-2.489026e+000	-5.085938e+001	8.772479e+001	-3.957667e+001	6.499903e+001	-7.322569e-002	-3.179695e+000
1402583500	-2.494537e-002	-2.564277e+000	-5.038751e+001	8.860193e+001	-3.978344e+001	6.616642e+001	-7.399474e-002	-3.307339e+000
1445083000	-3.143375e-002	-2.634908e+000	-4.997317e+001	8.780505e+001	-3.983553e+001	6.746721e+001	-7.296691e-002	-3.336459e+000
1487582500	-2.841060e-002	-2.759560e+000	-4.987927e+001	8.885707e+001	-3.986813e+001	6.716555e+001	-7.375826e-002	-3.432518e+000
1530082000	-2.696896e-002	-2.777664e+000	-4.941856e+001	8.958794e+001	-3.987489e+001	6.636549e+001	-7.702868e-002	-3.459344e+000
1572581500	-2.923766e-002	-2.874217e+000	-4.911181e+001	8.857538e+001	-4.136066e+001	6.169148e+001	-8.036167e-002	-3.404268e+000
1615081000	-2.558660e-002	-2.927833e+000	-4.911975e+001	8.852238e+001	-4.176224e+001	6.051171e+001	-8.620908e-002	-3.453280e+000
1657580500	-2.541875e-002	-3.025996e+000	-4.906446e+001	8.888551e+001	-4.224435e+001	6.038131e+001	-7.802905e-002	-3.486593e+000
1700080000	-2.331798e-002	-3.073746e+000	-4.881064e+001	8.866125e+001	-4.302097e+001	6.109115e+001	-7.937596e-002	-3.477272e+000
1742579500	-2.906254e-002	-3.170578e+000	-4.865428e+001	8.899206e+001	-4.376676e+001	6.351999e+001	-7.198138e-002	-3.478428e+000
1785079000	-2.796833e-002	-3.217687e+000	-4.837865e+001	8.931709e+001	-4.489526e+001	6.796395e+001	-6.025266e-002	-3.488418e+000
1827578500	-3.002544e-002	-3.339376e+000	-4.817868e+001	8.970510e+001	-4.559951e+001	7.433971e+001	-5.466003e-002	-3.494521e+000
1870078000	-2.827787e-002	-3.382564e+000	-4.785099e+001	8.939145e+001	-4.613499e+001	8.212781e+001	-4.581294e-002	-3.497507e+000
1912577500	-2.891580e-002	-3.470497e+000	-4.765797e+001	8.963537e+001	-4.673519e+001	8.707086e+001	-3.354216e-002	-3.536635e+000
1955077000	-3.037112e-002	-3.550502e+000	-4.751069e+001	8.941657e+001	-4.696700e+001	9.079777e+001	-3.104601e-002	-3.570286e+000
1997576500	-2.996104e-002	-3.625446e+000	-4.726503e+001	9.029542e+001	-4.694136e+001	9.010097e+001	-2.975932e-002	-3.622193e+000
2040076000	-2.761040e-002	-3.718890e+000	-4.703847e+001	8.904878e+001	-4.689189e+001	9.016586e+001	-3.110715e-002	-3.663643e+000
2082575500	-3.112911e-002	-3.777551e+000	-4.698050e+001	8.957001e+001	-4.699201e+001	9.055730e+001	-3.168902e-002	-3.737628e+000
2125075000	-3.125595e-002	-3.879466e+000	-4.664794e+001	8.970805e+001	-4.676160e+001	9.073001e+001	-3.271327e-002	-3.822805e+000
2167574500	-3.548206e-002	-3.948167e+000	-4.654275e+001	8.932168e+001	-4.670431e+001	9.005900e+001	-3.400069e-002	-3.894372e+000
2210074000	-3.331622e-002	-3.998247e+000	-4.643127e+001	8.969219e+001	-4.645770e+001	8.992759e+001	-3.662151e-002	-3.978642e+000
2252573500	-3.500031e-002	-4.085038e+000	-4.621967e+001	8.993088e+001	-4.624028e+001	8.980517e+001	-3.296615e-002	-4.048968e+000
2295073000	-3.341588e-002	-4.170279e+000	-4.601513e+001	9.041933e+001	-4.595738e+001	8.900879e+001	-3.645991e-002	-4.108101e+000
2337572500	-3.521553e-002	-4.236946e+000	-4.589089e+001	9.102802e+001	-4.577207e+001	8.996788e+001	-3.614259e-002	-4.173593e+000
2380072000	-3.475393e-002	-4.303498e+000	-4.564609e+001	9.028812e+001	-4.568697e+001	8.932733e+001	-3.539782e-002	-4.250255e+000
2422571500	-3.405293e-002	-4.403770e+000	-4.552990e+001	9.028590e+001	-4.553281e+001	9.023586e+001	-3.694585e-002	-4.334915e+000
2465071000	-3.185065e-002	-4.458077e+000	-4.537854e+001	9.066850e+001	-4.526594e+001	9.023715e+001	-3.689688e-002	-4.450440e+000
2507570500	-3.529244e-002	-4.549355e+000	-4.516684e+001	9.079965e+001	-4.513585e+001	9.024474e+001	-4.090947e-002	-4.517517e+000
2550070000	-3.308300e-002	-4.609972e+000	-4.506769e+001	9.036963e+001	-4.502674e+001	8.993573e+001	-3.678316e-002	-4.589265e+000
2592569500	-3.584074e-002	-4.677956e+000	-4.496287e+001	9.047062e+001	-4.489430e+001	8.967319e+001	-3.962653e-002	-4.642581e+000
2635069000	-3.842690e-002	-4.791097e+000	-4.467041e+001	9.029007e+001	-4.471777e+001	8.972299e+001	-4.078389e-002	-4.718379e+000
2677568500	-3.718507e-002	-4.883969e+000	-4.452595e+001	9.079095e+001	-4.467507e+001	9.016273e+001	-3.948687e-002	-4.806835e+000
2720068000	-3.784295e-002	-4.953424e+000	-4.436268e+001	9.028060e+001	-4.453021e+001	8.968583e+001	-4.162718e-002	-4.853336e+000
2762567500	-3.631876e-002	-5.014407e+000	-4.437780e+001	9.054224e+001	-4.428543e+001	8.927032e+001	-4.108295e-002	-4.938354e+000
2805067000	-3.712722e-002	-5.100968e+000	-4.426438e+001	9.048764e+001	-4.424140e+001	8.961326e+001	-4.205636e-002	-5.027185e+000
2847566500	-4.321519e-002	-5.148163e+000	-4.391922e+001	9.059883e+001	-4.393423e+001	9.001026e+001	-3.989526e-002	-5.080197e+000
2890066000	-4.292173e-002	-5.278517e+000	-4.382110e+001	9.087397e+001	-4.397050e+001	8.933863e+001	-4.353297e-002	-5.141237e+000
2932565500	-4.180180e-002	-5.306966e+000	-4.366508e+001	9.085347e+001	-4.383178e+001	8.948480e+001	-4.154943e-002	-5.250197e+000
2975065000	-3.769115e-002	-5.425954e+000	-4.353436e+001	9.028955e+001	-4.367194e+001	9.044350e+001	-4.934399e-002	-5.308836e+000
3017564500	-4.644387e-002	-5.466624e+000	-4.347949e+001	9.047328e+001	-4.358287e+001	8.986656e+001	-4.235431e-002	-5.378301e+000
3060064000	-4.272748e-002	-5.543107e+000	-4.331389e+001	9.102198e+001	-4.345831e+001	8.978960e+001	-4.467903e-002	-5.464985e+000
3102563500	-4.336872e-002	-5.641867e+000	-4.311095e+001	9.090972e+001	-4.334055e+001	8.992757e+001	-4.757999e-002	-5.542671e+000
3145063000	-4.813024e-002	-5.717881e+000	-4.288088e+001	9.058477e+001	-4.326237e+001	9.070454e+001	-4.300565e-002	-5.609279e+000
3187562500	-5.067148e-002	-5.837822e+000	-4.273586e+001	9.084355e+001	-4.305879e+001	9.108605e+001	-4.442131e-002	-5.639274e+000
3230062000	-4.986810e-002	-5.899442e+000	-4.257699e+001	9.017570e+001	-4.296792e+001	9.019451e+001	-4.445708e-002	-5.743165e+000
3272561500	-5.545194e-002	-5.978275e+000	-4.235692e+001	8.966447e+001	-4.285125e+001	9.023122e+001	-4.029097e-002	-5.809098e+000
3315061000	-5.156667e-002	-6.067668e+000	-4.224636e+001	8.982948e+001	-4.274862e+001	9.086783e+001	-4.247784e-002	-5.892882e+000
3357560500	-6.209887e-002	-6.176813e+000	-4.203102e+001	8.939619e+001	-4.263964e+001	9.132020e+001	-4.458329e-002	-5.989713e+000
3400060000	-6.176421e-002	-6.241486e+000	-4.195147e+001	8.878089e+001	-4.244775e+001	9.025515e+001	-4.698948e-002	-6.051371e+000
3442559500	-6.248009e-002	-6.373453e+000	-4.163505e+001	8.786987e+001	-4.246934e+001	9.092875e+001	-4.445057e-002	-6.081005e+000
3485059000	-6.918894e-002	-6.459179e+000	-4.149138e+001	8.718064e+001	-4.227733e+001	9.099090e+001	-4.626685e-002	-6.177028e+000
3527558500	-6.911963e-002	-6.535565e+000	-4.128443e+001	8.588934e+001	-4.218681e+001	9.035117e+001	-4.843077e-002	-6.262222e+000
3570058000	-7.176295e-002	-6.655695e+000	-4.101795e+001	8.460384e+001	-4.218789e+001	9.078440e+001	-4.857506e-002	-6.318541e+000
3612557500	-1.189125e-001	-6.921065e+000	-4.004657e+001	7.205367e+001	-4.191127e+001	9.099305e+001	-5.449192e-002	-6.411259e+000
3655057000	-1.243178e-001	-7.040964e+000	-3.980850e+001	7.011954e+001	-4.181767e+001	9.117336e+001	-4.919255e-002	-6.469099e+000
3697556500	-1.292285e-001	-7.143181e+000	-3.949299e+001	6.892598e+001	-4.173605e+001	9.142472e+001	-5.210755e-002	-6.576678e+000
3740056000	-1.386107e-001	-7.219657e+000	-3.943132e+001	6.797919e+001	-4.167632e+001	9.086033e+001	-4.651775e-002	-6.613121e+000
3782555500	-1.448963e-001	-7.339186e+000	-3.918933e+001	6.597208e+001	-4.160935e+001	9.088651e+001	-4.676150e-002	-6.709016e+000
3825055000	-1.516901e-001	-7.419823e+000	-3.895969e+001	6.581163e+001	-4.136474e+001	9.149031e+001	-4.564812e-002	-6.773345e+000
3867554500	-1.533772e-001	-7.502415e+000	-3.874876e+001	6.486885e+001	-4.132260e+001	9.122220e+001	-5.099049e-002	-6.847351e+000
3910054000	-1.522557e-001	-7.606176e+000	-3.855462e+001	6.475821e+001	-4.112740e+001	9.097001e+001	-4.992321e-002	-6.912487e+000
3952553500	-1.594793e-001	-7.649037e+000	-3.857496e+001	6.417010e+001	-4.118782e+001	9.130663e+001	-5.091489e-002	-7.005780e+000
3995053000	-1.606681e-001	-7.786069e+000	-3.838383e+001	6.388958e+001	-4.101063e+001	9.164324e+001	-5.100454e-002	-7.086007e+000
4037552500	-1.650865e-001	-7.867101e+000	-3.828928e+001	6.325068e+001	-4.084265e+001	9.150379e+001	-5.137322e-002	-7.187220e+000
4080052000	-1.649354e-001	-7.930115e+000	-3.810599e+001	6.344183e+001	-4.080332e+001	9.143501e+001	-5.201100e-002	-7.232603e+000
4122551500	-1.692234e-001	-8.055950e+000	-3.803089e+001	6.265686e+001	-4.080814e+001	9.151294e+001	-4.524351e-002	-7.303065e+000
4165051000	-1.741929e-001	-8.157602e+000	-3.797258e+001	6.317738e+001	-4.059957e+001	9.093429e+001	-5.536257e-002	-7.418410e+000
4207550500	-1.758669e-001	-8.167885e+000	-3.778577e+001	6.237906e+001	-4.056275e+001	9.105844e+001	-5.288033e-002	-7.446940e+000
4250050000	-1.815360e-001	-8.300290e+000	-3.773759e+001	6.235887e+001	-4.036400e+001	9.094483e+001	-5.457353e-002	-7.538292e+000
4292549500	-1.821355e-001	-8.349842e+000	-3.761365e+001	6.176754e+001	-4.040317e+001	9.093081e+001	-5.716005e-002	-7.610789e+000
4335049000	-1.840913e-001	-8.452415e+000	-3.748577e+001	6.181974e+001	-4.028351e+001	9.101126e+001	-5.733566e-002	-7.661973e+000
4377548500	-1.860373e-001	-8.508656e+000	-3.737560e+001	6.151709e+001	-4.014782e+001	9.101783e+001	-5.945077e-002	-7.772647e+000
4420048000	-1.974672e-001	-8.664009e+000	-3.680830e+001	5.836216e+001	-4.009735e+001	9.089679e+001	-5.592336e-002	-7.813640e+000
4462547500	-2.020341e-001	-8.767220e+000	-3.667712e+001	5.875755e+001	-3.991174e+001	9.124125e+001	-5.456115e-002	-7.940442e+000
4505047000	-2.019390e-001	-8.849781e+000	-3.656706e+001	5.800179e+001	-3.990851e+001	9.049477e+001	-6.766198e-002	-8.017422e+000
4547546500	-2.115895e-001	-8.923426e+000	-3.636239e+001	5.737143e+001	-3.983354e+001	9.072395e+001	-6.147006e-002	-8.082534e+000
4590046000	-2.095108e-001	-9.048427e+000	-3.631837e+001	5.773172e+001	-3.974567e+001	9.066461e+001	-6.041574e-002	-8.178949e+000
4632545500	-2.139111e-001	-9.126928e+000	-3.617192e+001	5.662552e+001	-3.956609e+001	9.047547e+001	-6.886016e-002	-8.234523e+000
4675045000	-2.110189e-001	-9.217006e+000	-3.603422e+001	5.693859e+001	-3.953495e+001	9.059543e+001	-6.036116e-002	-8.280190e+000
4717544500	-2.261928e-001	-9.321442e+000	-3.588677e+001	5.674317e+001	-3.944022e+001	9.055941e+001	-6.259712e-002	-8.406699e+000
4760044000	-2.252979e-001	-9.396154e+000	-3.580416e+001	5.620371e+001	-3.936035e+001	9.095136e+001	-6.511757e-002	-8.402052e+000
4802543500	-2.223362e-001	-9.513433e+000	-3.570031e+001	5.613684e+001	-3.923174e+001	9.037434e+001	-6.597219e-002	-8.542571e+000
4845043000	-2.336277e-001	-9.559325e+000	-3.556348e+001	5.556968e+001	-3.920038e+001	9.080358e+001	-6.398690e-002	-8.594725e+000
4887542500	-2.388251e-001	-9.662081e+000	-3.542054e+001	5.569246e+001	-3.910338e+001	9.040035e+001	-6.927886e-002	-8.682829e+000
4930042000	-2.338645e-001	-9.785840e+000	-3.533835e+001	5.569858e+001	-3.897556e+001	9.069020e+001	-7.222082e-002	-8.780609e+000
4972541500	-2.419093e-001	-9.871159e+000	-3.519861e+001	5.505300e+001	-3.891008e+001	9.064022e+001	-6.907227e-002	-8.825799e+000
5015041000	-2.412577e-001	-9.935584e+000	-3.514256e+001	5.512482e+001	-3.883484e+001	9.050909e+001	-6.938183e-002	-8.879236e+000
5057540500	-2.403469e-001	-1.003747e+001	-3.504321e+001	5.467517e+001	-3.874282e+001	9.070176e+001	-7.630643e-002	-8.952498e+000
5100040000	-2.466575e-001	-1.011748e+001	-3.484532e+001	5.472728e+001	-3.863601e+001	9.013370e+001	-6.959518e-002	-9.017766e+000
5142539500	-2.474402e-001	-1.021294e+001	-3.481208e+001	5.461710e+001	-3.859060e+001	9.048978e+001	-6.987616e-002	-9.125028e+000
5185039000	-2.502972e-001	-1.028718e+001	-3.472688e+001	5.416466e+001	-3.846878e+001	9.059487e+001	-7.548053e-002	-9.211333e+000
5227538500	-2.551488e-001	-1.038663e+001	-3.457671e+001	5.400694e+001	-3.843410e+001	9.041260e+001	-7.694303e-002	-9.234205e+000
5270038000	-2.584564e-001	-1.047929e+001	-3.456545e+001	5.395253e+001	-3.834297e+001	9.074763e+001	-7.242074e-002	-9.344138e+000
5312537500	-2.630410e-001	-1.058403e+001	-3.444144e+001	5.384134e+001	-3.823961e+001	9.095343e+001	-6.851478e-002	-9.371302e+000
5355037000	-2.664103e-001	-1.063616e+001	-3.437656e+001	5.364697e+001	-3.822624e+001	9.019251e+001	-6.752418e-002	-9.519209e+000
5397536500	-2.693926e-001	-1.071596e+001	-3.427415e+001	5.309729e+001	-3.810892e+001	9.070427e+001	-8.104675e-002	-9.521584e+000
5440036000	-2.751483e-001	-1.082959e+001	-3.416713e+001	5.326845e+001	-3.815784e+001	9.081870e+001	-7.525243e-002	-9.614254e+000
5482535500	-2.796258e-001	-1.092707e+001	-3.407339e+001	5.292475e+001	-3.798663e+001	9.056248e+001	-7.744131e-002	-9.740023e+000
5525035000	-2.868798e-001	-1.101206e+001	-3.377849e+001	5.194144e+001	-3.797226e+001	9.046996e+001	-7.831640e-002	-9.760572e+000
5567534500	-2.830823e-001	-1.111840e+001	-3.370995e+001	5.168233e+001	-3.785257e+001	9.034299e+001	-7.023182e-002	-9.848633e+000
5610034000	-2.923249e-001	-1.119792e+001	-3.366404e+001	5.158780e+001	-3.776034e+001	9.063400e+001	-8.173180e-002	-9.920799e+000
5652533500	-2.952521e-001	-1.126435e+001	-3.355891e+001	5.166163e+001	-3.772305e+001	9.061293e+001	-7.956386e-002	-1.000901e+001
5695033000	-2.908154e-001	-1.136226e+001	-3.355893e+001	5.168364e+001	-3.760669e+001	9.065958e+001	-8.021866e-002	-1.009849e+001
5737532500	-2.956969e-001	-1.145399e+001	-3.346699e+001	5.143854e+001	-3.758275e+001	9.100174e+001	-7.645370e-002	-1.011108e+001
5780032000	-3.019781e-001	-1.152084e+001	-3.342381e+001	5.149020e+001	-3.751000e+001	9.030597e+001	-7.983997e-002	-1.020472e+001
5822531500	-3.017891e-001	-1.162812e+001	-3.340415e+001	5.101450e+001	-3.741158e+001	9.057527e+001	-7.693261e-002	-1.033720e+001
5865031000	-3.006607e-001	-1.168398e+001	-3.329034e+001	5.117881e+001	-3.745209e+001	9.030002e+001	-7.930026e-002	-1.034197e+001
5907530500	-3.049872e-001	-1.176511e+001	-3.327501e+001	5.096304e+001	-3.730251e+001	9.015700e+001	-8.129865e-002	-1.047010e+001
5950030000	-3.180753e-001	-1.180436e+001	-3.317940e+001	5.076760e+001	-3.723729e+001	9.061612e+001	-9.347269e-002	-1.052046e+001
5992529500	-3.130350e-001	-1.193544e+001	-3.316351e+001	5.060993e+001	-3.717885e+001	9.043453e+001	-7.683289e-002	-1.057043e+001
6035029000	-3.104966e-001	-1.205283e+001	-3.313660e+001	5.052671e+001	-3.711597e+001	9.049102e+001	-8.701722e-002	-1.068883e+001
6077528500	-3.181097e-001	-1.206250e+001	-3.300092e+001	5.020752e+001	-3.702895e+001	9.034856e+001	-8.612348e-002	-1.074794e+001
6120028000	-3.236386e-001	-1.214086e+001	-3.303218e+001	5.038515e+001	-3.700657e+001	9.054256e+001	-8.304864e-002	-1.084674e+001
6162527500	-3.254366e-001	-1.225950e+001	-3.294672e+001	5.007727e+001	-3.689782e+001	9.090026e+001	-8.935796e-002	-1.083511e+001
6205027000	-3.316613e-001	-1.234103e+001	-3.286198e+001	4.998306e+001	-3.682586e+001	9.031793e+001	-7.560264e-002	-1.094303e+001
6247526500	-3.341585e-001	-1.244254e+001	-3.266746e+001	4.911243e+001	-3.676761e+001	9.071594e+001	-9.021125e-002	-1.102218e+001
6290026000	-3.467309e-001	-1.252493e+001	-3.260446e+001	4.889952e+001	-3.671077e+001	9.089066e+001	-9.194158e-002	-1.108644e+001
6332525500	-3.458002e-001	-1.258362e+001	-3.252092e+001	4.882154e+001	-3.658276e+001	9.094369e+001	-8.700744e-002	-1.120119e+001
6375025000	-3.480495e-001	-1.266631e+001	-3.248665e+001	4.868049e+001	-3.653957e+001	9.107208e+001	-9.288135e-002	-1.124310e+001
