!Keysight Technologies,E5071C,MY46733702,B.14.02
!Date: Sat Jan 27 12:06:19 2024
!Data & Calibration Information:
!Freq	S33:SOLT2(ON)	S43:SOLT2(ON)	S34:SOLT2(ON)	S44:SOLT2(ON)
!PortZ  Port3:50+j0    Port4:50+j0
!Above PortZ is port z conversion or system Z0 setting when saving the data.
!When reading, reference impedance value at option line is always used.
# Hz S dB R 50
100000	-2.133543e+001	4.519692e+000	-7.718012e-001	-4.513967e-001	-7.665796e-001	-4.494700e-001	-2.140072e+001	5.406274e+000
42599500	-2.070604e+001	-7.671478e-001	-8.586259e-001	-8.849862e-002	-8.649243e-001	-8.417836e-002	-2.073704e+001	-6.796242e-001
85099000	-2.067982e+001	-5.206262e-001	-8.668746e-001	-2.399796e-001	-8.687300e-001	-2.095468e-001	-2.073470e+001	-5.621168e-001
127598500	-2.073973e+001	-6.957301e-001	-8.682912e-001	-3.522719e-001	-8.668718e-001	-3.335867e-001	-2.070865e+001	-8.238221e-001
170098000	-2.073533e+001	-7.934544e-001	-8.684495e-001	-4.395767e-001	-8.670450e-001	-4.302056e-001	-2.068186e+001	-8.357404e-001
212597500	-2.074429e+001	-1.081037e+000	-8.710848e-001	-5.672051e-001	-8.660744e-001	-5.137408e-001	-2.068890e+001	-6.434744e-001
255097000	-2.076152e+001	-9.588854e-001	-8.720698e-001	-6.483018e-001	-8.671162e-001	-6.452252e-001	-2.067130e+001	-8.685229e-001
297596500	-2.075910e+001	-1.286604e+000	-8.751556e-001	-7.466243e-001	-8.658073e-001	-7.191107e-001	-2.065139e+001	-1.091678e+000
340096000	-2.078652e+001	-1.399644e+000	-8.748416e-001	-8.415336e-001	-8.654275e-001	-8.167965e-001	-2.065222e+001	-1.105194e+000
382595500	-2.076372e+001	-1.599674e+000	-8.731931e-001	-9.446388e-001	-8.633926e-001	-8.963851e-001	-2.067648e+001	-1.299334e+000
425095000	-2.082820e+001	-1.844402e+000	-8.740214e-001	-1.050588e+000	-8.588805e-001	-9.847807e-001	-2.067006e+001	-1.261106e+000
467594500	-2.079982e+001	-1.822749e+000	-8.714707e-001	-1.172700e+000	-8.558837e-001	-1.106350e+000	-2.063432e+001	-1.438835e+000
510094000	-2.082139e+001	-1.582014e+000	-8.736901e-001	-1.275146e+000	-8.585180e-001	-1.198259e+000	-2.064383e+001	-1.261290e+000
552593500	-2.081186e+001	-1.803758e+000	-8.738894e-001	-1.370144e+000	-8.609801e-001	-1.281541e+000	-2.067955e+001	-7.552950e-001
595093000	-2.083787e+001	-2.085676e+000	-8.774440e-001	-1.479768e+000	-8.575150e-001	-1.362792e+000	-2.067186e+001	-9.574618e-001
637592500	-2.080757e+001	-2.221225e+000	-8.804490e-001	-1.588368e+000	-8.617883e-001	-1.444969e+000	-2.062560e+001	-8.502941e-001
680092000	-2.086382e+001	-2.312936e+000	-8.791034e-001	-1.677882e+000	-8.606921e-001	-1.551853e+000	-2.063592e+001	-9.440714e-001
722591500	-2.085795e+001	-2.669930e+000	-8.819494e-001	-1.773977e+000	-8.600053e-001	-1.631687e+000	-2.059489e+001	-7.035287e-001
765091000	-2.085779e+001	-2.277179e+000	-8.825632e-001	-1.875428e+000	-8.623553e-001	-1.716564e+000	-2.065478e+001	-6.720707e-001
807590500	-2.089352e+001	-2.594571e+000	-8.855632e-001	-1.977026e+000	-8.623795e-001	-1.793096e+000	-2.062023e+001	-1.055815e+000
850090000	-2.089059e+001	-2.685308e+000	-8.846833e-001	-2.084400e+000	-8.637834e-001	-1.888661e+000	-2.064931e+001	-1.047595e+000
892589500	-2.087808e+001	-2.842830e+000	-8.842011e-001	-2.160228e+000	-8.622169e-001	-1.989758e+000	-2.059789e+001	-1.386079e+000
935089000	-2.093239e+001	-3.141591e+000	-8.876342e-001	-2.296764e+000	-8.635859e-001	-2.079664e+000	-2.064528e+001	-9.816249e-001
977588500	-2.086542e+001	-2.904146e+000	-8.901345e-001	-2.384040e+000	-8.670655e-001	-2.169247e+000	-2.062545e+001	-9.788836e-001
1020088000	-2.088553e+001	-3.097713e+000	-8.911830e-001	-2.479804e+000	-8.651062e-001	-2.272015e+000	-2.063503e+001	-1.199592e+000
1062587500	-2.090570e+001	-2.941569e+000	-8.922715e-001	-2.591647e+000	-8.666097e-001	-2.372394e+000	-2.065001e+001	-1.169301e+000
1105087000	-2.088823e+001	-3.430468e+000	-8.934691e-001	-2.681210e+000	-8.713197e-001	-2.448394e+000	-2.069707e+001	-1.220927e+000
1147586500	-2.094117e+001	-3.459020e+000	-8.949793e-001	-2.766525e+000	-8.738396e-001	-2.556085e+000	-2.069418e+001	-1.351040e+000
1190086000	-2.092418e+001	-3.560459e+000	-8.970455e-001	-2.868778e+000	-8.739889e-001	-2.666301e+000	-2.069936e+001	-1.346849e+000
1232585500	-2.096523e+001	-3.588984e+000	-8.993377e-001	-2.972038e+000	-8.763182e-001	-2.753013e+000	-2.068136e+001	-1.649515e+000
1275085000	-2.091140e+001	-3.639542e+000	-8.982760e-001	-3.060888e+000	-8.772687e-001	-2.857546e+000	-2.069765e+001	-1.649460e+000
1317584500	-2.093452e+001	-3.896310e+000	-8.975160e-001	-3.158541e+000	-8.781620e-001	-2.952553e+000	-2.074290e+001	-1.748221e+000
1360084000	-2.094318e+001	-3.702471e+000	-9.041184e-001	-3.255168e+000	-8.804263e-001	-3.052781e+000	-2.078134e+001	-1.677540e+000
1402583500	-2.093727e+001	-4.144380e+000	-9.033871e-001	-3.352358e+000	-8.803162e-001	-3.136551e+000	-2.074037e+001	-1.748393e+000
1445083000	-2.092404e+001	-4.078825e+000	-9.050638e-001	-3.447895e+000	-8.853178e-001	-3.243876e+000	-2.073894e+001	-1.936629e+000
1487582500	-2.096043e+001	-4.319591e+000	-9.087512e-001	-3.540811e+000	-8.862925e-001	-3.329864e+000	-2.075275e+001	-2.067825e+000
1530082000	-2.094684e+001	-4.253532e+000	-9.059882e-001	-3.637814e+000	-8.876851e-001	-3.433459e+000	-2.076836e+001	-2.159627e+000
1572581500	-2.091736e+001	-4.367397e+000	-9.077877e-001	-3.744506e+000	-8.913814e-001	-3.546960e+000	-2.079807e+001	-2.743518e+000
1615081000	-2.099013e+001	-4.570230e+000	-9.096096e-001	-3.839357e+000	-8.919353e-001	-3.639290e+000	-2.082515e+001	-2.689983e+000
1657580500	-2.096778e+001	-4.639275e+000	-9.112321e-001	-3.944835e+000	-8.942214e-001	-3.744951e+000	-2.082429e+001	-2.695381e+000
1700080000	-2.098239e+001	-4.716122e+000	-9.123494e-001	-4.039117e+000	-8.949187e-001	-3.835869e+000	-2.080349e+001	-2.777056e+000
1742579500	-2.099491e+001	-4.808460e+000	-9.144786e-001	-4.123292e+000	-8.980894e-001	-3.928399e+000	-2.079565e+001	-2.922053e+000
1785079000	-2.098829e+001	-5.089768e+000	-9.157430e-001	-4.234263e+000	-8.955734e-001	-4.038557e+000	-2.084788e+001	-3.272171e+000
1827578500	-2.099363e+001	-4.888810e+000	-9.166922e-001	-4.320471e+000	-8.979704e-001	-4.134310e+000	-2.082361e+001	-2.943493e+000
1870078000	-2.102606e+001	-4.654873e+000	-9.188337e-001	-4.393639e+000	-9.028527e-001	-4.244265e+000	-2.083029e+001	-3.387351e+000
1912577500	-2.098998e+001	-5.358422e+000	-9.168968e-001	-4.506072e+000	-9.013340e-001	-4.342973e+000	-2.084683e+001	-3.597065e+000
1955077000	-2.099727e+001	-5.118217e+000	-9.205885e-001	-4.612152e+000	-9.039634e-001	-4.438522e+000	-2.087051e+001	-3.396189e+000
1997576500	-2.103998e+001	-5.564894e+000	-9.229673e-001	-4.711968e+000	-9.080422e-001	-4.553211e+000	-2.088267e+001	-3.614361e+000
2040076000	-2.100735e+001	-5.422329e+000	-9.216897e-001	-4.780448e+000	-9.098952e-001	-4.650373e+000	-2.086268e+001	-3.654162e+000
2082575500	-2.104684e+001	-5.187146e+000	-9.259140e-001	-4.881212e+000	-9.098254e-001	-4.734910e+000	-2.089246e+001	-3.964717e+000
2125075000	-2.104448e+001	-5.445264e+000	-9.276336e-001	-4.985259e+000	-9.143189e-001	-4.832455e+000	-2.090293e+001	-4.042129e+000
2167574500	-2.103829e+001	-5.401861e+000	-9.294073e-001	-5.076616e+000	-9.150189e-001	-4.939398e+000	-2.088170e+001	-4.260677e+000
2210074000	-2.104323e+001	-5.845757e+000	-9.303723e-001	-5.154474e+000	-9.183171e-001	-5.083732e+000	-2.095775e+001	-4.845631e+000
2252573500	-2.101249e+001	-5.819537e+000	-9.300078e-001	-5.250797e+000	-9.228972e-001	-5.188848e+000	-2.095881e+001	-4.611551e+000
2295073000	-2.104787e+001	-6.138441e+000	-9.328041e-001	-5.353217e+000	-9.249619e-001	-5.281106e+000	-2.098061e+001	-4.852244e+000
2337572500	-2.101925e+001	-6.009083e+000	-9.325204e-001	-5.461862e+000	-9.236222e-001	-5.384131e+000	-2.100605e+001	-5.137701e+000
2380072000	-2.106415e+001	-5.867704e+000	-9.335501e-001	-5.541390e+000	-9.285869e-001	-5.465190e+000	-2.101832e+001	-5.341344e+000
2422571500	-2.105852e+001	-6.189318e+000	-9.366924e-001	-5.650072e+000	-9.305834e-001	-5.581293e+000	-2.100147e+001	-5.223302e+000
2465071000	-2.103243e+001	-6.113767e+000	-9.387138e-001	-5.729347e+000	-9.322909e-001	-5.684257e+000	-2.100092e+001	-5.305099e+000
2507570500	-2.107060e+001	-6.307025e+000	-9.402451e-001	-5.841436e+000	-9.341130e-001	-5.776826e+000	-2.106951e+001	-5.560848e+000
2550070000	-2.107538e+001	-6.459982e+000	-9.415613e-001	-5.935624e+000	-9.362332e-001	-5.866165e+000	-2.102866e+001	-5.731529e+000
2592569500	-2.113035e+001	-6.549678e+000	-9.441459e-001	-6.026460e+000	-9.368966e-001	-5.982703e+000	-2.102467e+001	-6.006208e+000
2635069000	-2.107977e+001	-6.448546e+000	-9.431560e-001	-6.106861e+000	-9.411527e-001	-6.090544e+000	-2.104592e+001	-5.873390e+000
2677568500	-2.107530e+001	-6.617210e+000	-9.477816e-001	-6.214699e+000	-9.425592e-001	-6.183791e+000	-2.105902e+001	-5.916795e+000
2720068000	-2.111254e+001	-6.748253e+000	-9.508683e-001	-6.304776e+000	-9.432022e-001	-6.267799e+000	-2.108222e+001	-6.324663e+000
2762567500	-2.111382e+001	-6.749319e+000	-9.475569e-001	-6.424169e+000	-9.483281e-001	-6.367434e+000	-2.109111e+001	-6.091586e+000
2805067000	-2.111215e+001	-6.879444e+000	-9.515326e-001	-6.536504e+000	-9.485317e-001	-6.460153e+000	-2.113516e+001	-6.545787e+000
2847566500	-2.109914e+001	-6.753924e+000	-9.531349e-001	-6.606949e+000	-9.505095e-001	-6.553799e+000	-2.114058e+001	-6.594360e+000
2890066000	-2.109933e+001	-6.927119e+000	-9.567602e-001	-6.667873e+000	-9.514642e-001	-6.658429e+000	-2.112161e+001	-6.523581e+000
2932565500	-2.113893e+001	-6.808294e+000	-9.583412e-001	-6.784710e+000	-9.545878e-001	-6.763682e+000	-2.109493e+001	-6.806552e+000
2975065000	-2.113011e+001	-7.103860e+000	-9.573828e-001	-6.861394e+000	-9.540191e-001	-6.843240e+000	-2.109244e+001	-6.836888e+000
3017564500	-2.114546e+001	-6.890440e+000	-9.619355e-001	-6.950081e+000	-9.584960e-001	-6.945731e+000	-2.118037e+001	-6.866435e+000
3060064000	-2.114548e+001	-7.288314e+000	-9.616467e-001	-7.058228e+000	-9.604081e-001	-7.050952e+000	-2.114269e+001	-6.995198e+000
3102563500	-2.111507e+001	-7.398575e+000	-9.621176e-001	-7.166187e+000	-9.599961e-001	-7.150342e+000	-2.120472e+001	-7.289203e+000
3145063000	-2.113953e+001	-7.370552e+000	-9.629417e-001	-7.229299e+000	-9.619383e-001	-7.240276e+000	-2.122197e+001	-7.380138e+000
3187562500	-2.116607e+001	-7.524197e+000	-9.667001e-001	-7.356129e+000	-9.700475e-001	-7.351540e+000	-2.122463e+001	-7.862784e+000
3230062000	-2.115910e+001	-7.686687e+000	-9.651362e-001	-7.432048e+000	-9.692261e-001	-7.420974e+000	-2.121456e+001	-7.612648e+000
3272561500	-2.117557e+001	-7.682646e+000	-9.702861e-001	-7.522570e+000	-9.713536e-001	-7.540441e+000	-2.119774e+001	-7.772975e+000
3315061000	-2.113941e+001	-7.702751e+000	-9.715680e-001	-7.608211e+000	-9.734950e-001	-7.622752e+000	-2.121768e+001	-7.531256e+000
3357560500	-2.118588e+001	-7.571049e+000	-9.720204e-001	-7.700364e+000	-9.752393e-001	-7.721763e+000	-2.127741e+001	-7.820646e+000
3400060000	-2.118930e+001	-7.919637e+000	-9.749953e-001	-7.778114e+000	-9.778554e-001	-7.822537e+000	-2.125506e+001	-7.890393e+000
3442559500	-2.115550e+001	-8.173362e+000	-9.791546e-001	-7.880958e+000	-9.823381e-001	-7.909084e+000	-2.130078e+001	-8.096502e+000
3485059000	-2.116964e+001	-8.145980e+000	-9.779815e-001	-7.971610e+000	-9.822512e-001	-8.002407e+000	-2.127274e+001	-8.182497e+000
3527558500	-2.119907e+001	-8.225674e+000	-9.819528e-001	-8.080219e+000	-9.832371e-001	-8.088900e+000	-2.124297e+001	-8.388360e+000
3570058000	-2.117973e+001	-8.107007e+000	-9.793235e-001	-8.166690e+000	-9.839535e-001	-8.183569e+000	-2.129643e+001	-8.281734e+000
3612557500	-2.118219e+001	-8.193181e+000	-9.851185e-001	-8.263736e+000	-9.895822e-001	-8.299669e+000	-2.132666e+001	-8.628584e+000
3655057000	-2.119360e+001	-8.098353e+000	-9.846490e-001	-8.328403e+000	-9.893467e-001	-8.385024e+000	-2.129531e+001	-8.601870e+000
3697556500	-2.117451e+001	-8.608147e+000	-9.856306e-001	-8.448045e+000	-9.927518e-001	-8.478946e+000	-2.132423e+001	-8.900677e+000
3740056000	-2.120842e+001	-8.223832e+000	-9.901818e-001	-8.539176e+000	-9.935493e-001	-8.574972e+000	-2.131768e+001	-8.751292e+000
3782555500	-2.120988e+001	-8.222896e+000	-9.903065e-001	-8.601733e+000	-9.942263e-001	-8.675446e+000	-2.136919e+001	-8.817441e+000
3825055000	-2.123555e+001	-8.816468e+000	-9.912901e-001	-8.720842e+000	-9.962075e-001	-8.757156e+000	-2.137260e+001	-8.658873e+000
3867554500	-2.121208e+001	-8.534246e+000	-9.946241e-001	-8.808657e+000	-9.987596e-001	-8.866431e+000	-2.136602e+001	-9.006481e+000
3910054000	-2.125442e+001	-8.736975e+000	-9.967575e-001	-8.908728e+000	-1.000930e+000	-8.945205e+000	-2.137072e+001	-9.185825e+000
3952553500	-2.127278e+001	-8.937951e+000	-9.959963e-001	-9.011885e+000	-1.001248e+000	-9.052311e+000	-2.141081e+001	-9.390261e+000
3995053000	-2.123406e+001	-8.684961e+000	-9.988495e-001	-9.093330e+000	-1.003595e+000	-9.142682e+000	-2.140784e+001	-9.375358e+000
4037552500	-2.130077e+001	-9.118651e+000	-1.000156e+000	-9.197266e+000	-1.005317e+000	-9.236865e+000	-2.139782e+001	-9.475064e+000
4080052000	-2.128745e+001	-8.952730e+000	-1.000053e+000	-9.260159e+000	-1.007339e+000	-9.329555e+000	-2.147250e+001	-9.588898e+000
4122551500	-2.130388e+001	-9.144089e+000	-1.005174e+000	-9.356150e+000	-1.011333e+000	-9.419806e+000	-2.140591e+001	-9.466121e+000
4165051000	-2.128580e+001	-9.183812e+000	-1.005088e+000	-9.462154e+000	-1.011626e+000	-9.508840e+000	-2.145919e+001	-9.856859e+000
4207550500	-2.132497e+001	-8.944736e+000	-1.006788e+000	-9.519888e+000	-1.013783e+000	-9.608130e+000	-2.145814e+001	-9.439357e+000
4250050000	-2.131145e+001	-9.266495e+000	-1.009258e+000	-9.656945e+000	-1.019544e+000	-9.701672e+000	-2.150913e+001	-1.009231e+001
4292549500	-2.134652e+001	-9.226629e+000	-1.009965e+000	-9.732280e+000	-1.017806e+000	-9.797182e+000	-2.148020e+001	-1.003833e+001
4335049000	-2.132176e+001	-9.387105e+000	-1.014850e+000	-9.808175e+000	-1.020809e+000	-9.865078e+000	-2.146737e+001	-1.019282e+001
4377548500	-2.132976e+001	-9.471667e+000	-1.013819e+000	-9.895862e+000	-1.020020e+000	-9.965003e+000	-2.148132e+001	-9.980416e+000
4420048000	-2.133252e+001	-9.228699e+000	-1.014924e+000	-9.990432e+000	-1.021965e+000	-1.004600e+001	-2.148783e+001	-1.021149e+001
4462547500	-2.135342e+001	-9.504506e+000	-1.019335e+000	-1.005554e+001	-1.024739e+000	-1.015343e+001	-2.156257e+001	-1.051699e+001
4505047000	-2.134816e+001	-9.574802e+000	-1.016975e+000	-1.016169e+001	-1.025229e+000	-1.025150e+001	-2.153117e+001	-1.028181e+001
4547546500	-2.137679e+001	-9.523531e+000	-1.018806e+000	-1.024170e+001	-1.024394e+000	-1.034145e+001	-2.152052e+001	-1.026030e+001
4590046000	-2.135390e+001	-9.183046e+000	-1.017269e+000	-1.035281e+001	-1.029336e+000	-1.045263e+001	-2.160532e+001	-1.038496e+001
4632545500	-2.135123e+001	-9.346063e+000	-1.021231e+000	-1.041274e+001	-1.033348e+000	-1.051234e+001	-2.153584e+001	-1.038530e+001
4675045000	-2.136236e+001	-9.319137e+000	-1.016614e+000	-1.053321e+001	-1.036834e+000	-1.061557e+001	-2.160757e+001	-1.039224e+001
4717544500	-2.136299e+001	-9.372778e+000	-1.024221e+000	-1.056475e+001	-1.036262e+000	-1.072232e+001	-2.166119e+001	-1.075251e+001
4760044000	-2.142479e+001	-9.437466e+000	-1.025644e+000	-1.066390e+001	-1.034605e+000	-1.083054e+001	-2.158877e+001	-1.060473e+001
4802543500	-2.142467e+001	-9.599991e+000	-1.023677e+000	-1.079480e+001	-1.034382e+000	-1.089154e+001	-2.162003e+001	-1.056700e+001
4845043000	-2.135289e+001	-9.070910e+000	-1.025879e+000	-1.085227e+001	-1.041900e+000	-1.100658e+001	-2.164325e+001	-1.093535e+001
4887542500	-2.135268e+001	-9.293411e+000	-1.022783e+000	-1.093958e+001	-1.042784e+000	-1.106538e+001	-2.167382e+001	-1.055608e+001
4930042000	-2.137702e+001	-9.158149e+000	-1.030752e+000	-1.100643e+001	-1.048343e+000	-1.120738e+001	-2.168316e+001	-1.101970e+001
4972541500	-2.142169e+001	-9.009267e+000	-1.037178e+000	-1.110884e+001	-1.043634e+000	-1.131285e+001	-2.168518e+001	-1.112491e+001
5015041000	-2.135244e+001	-9.128637e+000	-1.032450e+000	-1.121398e+001	-1.050222e+000	-1.136017e+001	-2.171056e+001	-1.063794e+001
5057540500	-2.132550e+001	-8.822003e+000	-1.027138e+000	-1.129167e+001	-1.051351e+000	-1.151374e+001	-2.170444e+001	-1.099857e+001
5100040000	-2.142239e+001	-8.855773e+000	-1.037017e+000	-1.134637e+001	-1.052293e+000	-1.156808e+001	-2.168685e+001	-1.075589e+001
5142539500	-2.135281e+001	-8.930642e+000	-1.033729e+000	-1.144664e+001	-1.057146e+000	-1.165029e+001	-2.172069e+001	-1.101113e+001
5185039000	-2.131224e+001	-8.802453e+000	-1.036469e+000	-1.149236e+001	-1.054862e+000	-1.175914e+001	-2.173399e+001	-1.132515e+001
5227538500	-2.128708e+001	-8.847595e+000	-1.036903e+000	-1.158928e+001	-1.059825e+000	-1.182992e+001	-2.171833e+001	-1.109296e+001
5270038000	-2.129635e+001	-8.202208e+000	-1.034057e+000	-1.166489e+001	-1.064860e+000	-1.195966e+001	-2.177488e+001	-1.151249e+001
5312537500	-2.138258e+001	-8.177833e+000	-1.042943e+000	-1.171551e+001	-1.063350e+000	-1.200716e+001	-2.176125e+001	-1.141751e+001
5355037000	-2.123177e+001	-8.093026e+000	-1.030117e+000	-1.179835e+001	-1.067684e+000	-1.209769e+001	-2.176496e+001	-1.087848e+001
5397536500	-2.126439e+001	-7.585290e+000	-1.037065e+000	-1.182021e+001	-1.071152e+000	-1.224701e+001	-2.181423e+001	-1.172789e+001
5440036000	-2.123104e+001	-7.782390e+000	-1.034803e+000	-1.195287e+001	-1.070765e+000	-1.232067e+001	-2.176936e+001	-1.083527e+001
5482535500	-2.109749e+001	-7.396252e+000	-1.017633e+000	-1.199450e+001	-1.080833e+000	-1.244676e+001	-2.186827e+001	-1.160195e+001
5525035000	-2.081383e+001	-5.933213e+000	-9.959010e-001	-1.190805e+001	-1.072245e+000	-1.254358e+001	-2.181600e+001	-1.172561e+001
5567534500	-2.065216e+001	-6.476765e+000	-9.827260e-001	-1.206625e+001	-1.078075e+000	-1.254987e+001	-2.178888e+001	-1.062437e+001
5610034000	-2.064079e+001	-5.601696e+000	-9.800308e-001	-1.203848e+001	-1.088142e+000	-1.272480e+001	-2.196832e+001	-1.166130e+001
5652533500	-2.079557e+001	-6.490111e+000	-1.003329e+000	-1.222569e+001	-1.077416e+000	-1.277014e+001	-2.176554e+001	-1.145930e+001
5695033000	-2.076032e+001	-6.317092e+000	-9.965997e-001	-1.231794e+001	-1.088208e+000	-1.283356e+001	-2.188362e+001	-1.113696e+001
5737532500	-2.096730e+001	-6.578183e+000	-1.022708e+000	-1.240942e+001	-1.089436e+000	-1.300955e+001	-2.190859e+001	-1.167020e+001
5780032000	-2.093360e+001	-7.170172e+000	-1.019746e+000	-1.263609e+001	-1.084813e+000	-1.304730e+001	-2.181719e+001	-1.106008e+001
5822531500	-2.103337e+001	-7.309128e+000	-1.030906e+000	-1.271364e+001	-1.094706e+000	-1.315857e+001	-2.199131e+001	-1.137529e+001
5865031000	-2.118938e+001	-7.804492e+000	-1.047753e+000	-1.288194e+001	-1.088748e+000	-1.329804e+001	-2.185805e+001	-1.170337e+001
5907530500	-2.107606e+001	-8.058821e+000	-1.035126e+000	-1.298323e+001	-1.089143e+000	-1.332608e+001	-2.188119e+001	-1.115772e+001
5950030000	-2.120173e+001	-7.802498e+000	-1.048356e+000	-1.303359e+001	-1.106468e+000	-1.349611e+001	-2.201198e+001	-1.145848e+001
5992529500	-2.116178e+001	-8.536772e+000	-1.052179e+000	-1.325236e+001	-1.097544e+000	-1.355056e+001	-2.178370e+001	-1.158284e+001
6035029000	-2.120309e+001	-9.061812e+000	-1.045718e+000	-1.331364e+001	-1.106979e+000	-1.362530e+001	-2.198946e+001	-1.143297e+001
6077528500	-2.126543e+001	-8.679872e+000	-1.062596e+000	-1.345484e+001	-1.105991e+000	-1.377959e+001	-2.192402e+001	-1.136847e+001
6120028000	-2.122481e+001	-9.436851e+000	-1.065573e+000	-1.358106e+001	-1.106327e+000	-1.382598e+001	-2.187375e+001	-1.172287e+001
6162527500	-2.128236e+001	-9.085543e+000	-1.067526e+000	-1.361842e+001	-1.114326e+000	-1.393119e+001	-2.193565e+001	-1.171536e+001
6205027000	-2.130062e+001	-9.840494e+000	-1.072942e+000	-1.378129e+001	-1.114432e+000	-1.403369e+001	-2.187963e+001	-1.180408e+001
6247526500	-2.134458e+001	-1.079819e+001	-1.082151e+000	-1.391591e+001	-1.120064e+000	-1.407774e+001	-2.198225e+001	-1.143568e+001
