!Keysight Technologies,E5071C,MY46733702,B.14.02
!Date: Sat Jan 27 12:14:28 2024
!Data & Calibration Information:
!Freq	S33:SOLT2(ON)	S43:SOLT2(ON)	S34:SOLT2(ON)	S44:SOLT2(ON)
!PortZ  Port3:50+j0    Port4:50+j0
!Above PortZ is port z conversion or system Z0 setting when saving the data.
!When reading, reference impedance value at option line is always used.
# Hz S dB R 50
100000	-2.517927e+001	2.544463e+000	-4.846337e-001	-1.685257e-001	-4.859913e-001	-1.561530e-001	-2.520846e+001	3.444363e+000
42599500	-2.519517e+001	-4.464948e-001	-5.047146e-001	-4.710989e-002	-4.989763e-001	-4.123198e-002	-2.504660e+001	-3.429406e-001
85099000	-2.525726e+001	-9.927173e-002	-5.141197e-001	-7.974503e-002	-5.052370e-001	-5.090303e-002	-2.514494e+001	-2.029436e-001
127598500	-2.540229e+001	8.662397e-002	-5.183140e-001	-1.225260e-001	-5.048730e-001	-1.391801e-001	-2.519362e+001	-3.826704e-001
170098000	-2.542840e+001	6.915932e-001	-5.198851e-001	-1.589572e-001	-5.081550e-001	-1.693448e-001	-2.512286e+001	-7.296887e-001
212597500	-2.541269e+001	-1.080044e-001	-5.195822e-001	-2.071477e-001	-5.081279e-001	-1.941656e-001	-2.519366e+001	1.520431e-001
255097000	-2.541552e+001	1.856309e-001	-5.191610e-001	-2.151548e-001	-5.096552e-001	-2.521240e-001	-2.519800e+001	1.291982e-001
297596500	-2.544449e+001	1.988723e-001	-5.218788e-001	-2.628651e-001	-5.099260e-001	-2.744093e-001	-2.519974e+001	-2.035992e-001
340096000	-2.543712e+001	6.206609e-001	-5.217098e-001	-2.877798e-001	-5.122900e-001	-3.001923e-001	-2.524491e+001	-1.810362e-001
382595500	-2.542231e+001	2.334413e-001	-5.234336e-001	-3.196458e-001	-5.100089e-001	-3.275903e-001	-2.524688e+001	2.154114e-001
425095000	-2.545203e+001	-1.516276e-001	-5.240986e-001	-3.642877e-001	-5.108838e-001	-3.705157e-001	-2.521290e+001	1.535038e-002
467594500	-2.541386e+001	5.274709e-001	-5.232632e-001	-3.944354e-001	-5.126916e-001	-4.024993e-001	-2.521256e+001	3.074347e-001
510094000	-2.541453e+001	7.770647e-001	-5.221688e-001	-4.307697e-001	-5.125273e-001	-4.476620e-001	-2.517887e+001	5.546512e-001
552593500	-2.548101e+001	3.386272e-001	-5.245302e-001	-4.547637e-001	-5.151008e-001	-4.829438e-001	-2.525257e+001	5.909620e-001
595093000	-2.543739e+001	2.483088e-001	-5.232095e-001	-4.985729e-001	-5.130964e-001	-5.070161e-001	-2.527609e+001	6.660964e-001
637592500	-2.541394e+001	4.731738e-001	-5.251501e-001	-5.177145e-001	-5.157402e-001	-5.258355e-001	-2.524174e+001	8.266501e-001
680092000	-2.541166e+001	5.607362e-001	-5.249957e-001	-5.436681e-001	-5.166135e-001	-5.531818e-001	-2.518201e+001	6.102262e-001
722591500	-2.538440e+001	2.958834e-001	-5.256221e-001	-6.025357e-001	-5.150042e-001	-5.905599e-001	-2.520087e+001	7.447885e-001
765091000	-2.537993e+001	5.281425e-001	-5.248770e-001	-6.263901e-001	-5.175173e-001	-6.283745e-001	-2.524633e+001	6.350385e-001
807590500	-2.546094e+001	5.506420e-001	-5.277221e-001	-6.587443e-001	-5.157971e-001	-6.455180e-001	-2.520076e+001	6.723391e-001
850090000	-2.544576e+001	6.547414e-001	-5.258867e-001	-6.968563e-001	-5.145472e-001	-6.759833e-001	-2.524789e+001	6.788065e-001
892589500	-2.537852e+001	6.528763e-001	-5.245014e-001	-7.198408e-001	-5.153328e-001	-7.180059e-001	-2.520199e+001	5.707024e-001
935089000	-2.552038e+001	2.504702e-001	-5.272683e-001	-7.672647e-001	-5.173224e-001	-7.514410e-001	-2.517299e+001	1.167339e+000
977588500	-2.536162e+001	6.477459e-001	-5.286571e-001	-8.020486e-001	-5.178890e-001	-7.711884e-001	-2.517715e+001	6.771038e-001
1020088000	-2.543584e+001	7.882521e-001	-5.286760e-001	-8.217728e-001	-5.151612e-001	-8.143788e-001	-2.521287e+001	9.505799e-001
1062587500	-2.540964e+001	4.919116e-001	-5.305672e-001	-8.605965e-001	-5.145592e-001	-8.507257e-001	-2.517900e+001	1.150175e+000
1105087000	-2.543178e+001	3.969637e-001	-5.303694e-001	-8.934841e-001	-5.186732e-001	-8.600232e-001	-2.524502e+001	1.386117e+000
1147586500	-2.542619e+001	3.228610e-002	-5.301173e-001	-9.233204e-001	-5.191513e-001	-8.899428e-001	-2.519708e+001	9.215587e-001
1190086000	-2.544486e+001	8.562658e-001	-5.298348e-001	-9.472247e-001	-5.167065e-001	-9.495487e-001	-2.516643e+001	1.285511e+000
1232585500	-2.539713e+001	5.742114e-001	-5.292926e-001	-9.822307e-001	-5.184120e-001	-9.635755e-001	-2.519289e+001	1.211668e+000
1275085000	-2.545232e+001	9.193680e-001	-5.317416e-001	-1.022521e+000	-5.199381e-001	-9.978661e-001	-2.520876e+001	1.357732e+000
1317584500	-2.547845e+001	8.011646e-001	-5.302942e-001	-1.034451e+000	-5.194142e-001	-1.032704e+000	-2.521258e+001	6.520430e-001
1360084000	-2.541778e+001	1.126184e+000	-5.355062e-001	-1.063748e+000	-5.194767e-001	-1.057610e+000	-2.522233e+001	1.312078e+000
1402583500	-2.544536e+001	7.347700e-001	-5.331398e-001	-1.110469e+000	-5.193961e-001	-1.098243e+000	-2.521762e+001	1.498381e+000
1445083000	-2.545696e+001	1.051435e+000	-5.341386e-001	-1.133055e+000	-5.221304e-001	-1.124263e+000	-2.521257e+001	1.568875e+000
1487582500	-2.548441e+001	6.334549e-001	-5.342731e-001	-1.159960e+000	-5.211993e-001	-1.145891e+000	-2.522100e+001	1.349372e+000
1530082000	-2.541620e+001	1.057128e+000	-5.347482e-001	-1.211728e+000	-5.213977e-001	-1.183731e+000	-2.523593e+001	1.178187e+000
1572581500	-2.544220e+001	7.015785e-001	-5.355131e-001	-1.239428e+000	-5.235844e-001	-1.205022e+000	-2.521950e+001	1.378077e+000
1615081000	-2.554570e+001	1.171949e+000	-5.349317e-001	-1.270969e+000	-5.229964e-001	-1.239912e+000	-2.521707e+001	1.118267e+000
1657580500	-2.544085e+001	7.135687e-001	-5.356101e-001	-1.301417e+000	-5.204100e-001	-1.266938e+000	-2.518291e+001	1.520547e+000
1700080000	-2.545771e+001	7.074394e-001	-5.358455e-001	-1.327242e+000	-5.216440e-001	-1.300087e+000	-2.517904e+001	1.625270e+000
1742579500	-2.550145e+001	7.894839e-001	-5.344140e-001	-1.346943e+000	-5.231348e-001	-1.324755e+000	-2.511241e+001	1.363678e+000
1785079000	-2.543878e+001	7.799099e-001	-5.367494e-001	-1.388503e+000	-5.203467e-001	-1.367350e+000	-2.516945e+001	1.232136e+000
1827578500	-2.550633e+001	1.047000e+000	-5.364987e-001	-1.433870e+000	-5.203863e-001	-1.416417e+000	-2.515630e+001	1.939951e+000
1870078000	-2.544162e+001	1.336490e+000	-5.389489e-001	-1.441419e+000	-5.258814e-001	-1.427242e+000	-2.518887e+001	1.472389e+000
1912577500	-2.540606e+001	7.958024e-001	-5.352243e-001	-1.463975e+000	-5.235513e-001	-1.470685e+000	-2.519370e+001	1.605522e+000
1955077000	-2.553152e+001	1.140356e+000	-5.355983e-001	-1.542375e+000	-5.194445e-001	-1.493395e+000	-2.510691e+001	1.489786e+000
1997576500	-2.544682e+001	9.898297e-001	-5.383668e-001	-1.560478e+000	-5.243249e-001	-1.532455e+000	-2.523107e+001	1.458908e+000
2040076000	-2.549499e+001	1.121582e+000	-5.370598e-001	-1.584671e+000	-5.242906e-001	-1.570137e+000	-2.519819e+001	2.083652e+000
2082575500	-2.547163e+001	1.173504e+000	-5.393500e-001	-1.596469e+000	-5.236497e-001	-1.586755e+000	-2.514925e+001	1.513401e+000
2125075000	-2.549964e+001	1.495069e+000	-5.409081e-001	-1.631316e+000	-5.243161e-001	-1.612048e+000	-2.522326e+001	1.628885e+000
2167574500	-2.544808e+001	1.704151e+000	-5.401110e-001	-1.677323e+000	-5.273282e-001	-1.649473e+000	-2.519661e+001	1.486171e+000
2210074000	-2.545446e+001	1.347997e+000	-5.402777e-001	-1.688892e+000	-5.255804e-001	-1.664063e+000	-2.517559e+001	2.519988e+000
2252573500	-2.540942e+001	1.476740e+000	-5.387531e-001	-1.706952e+000	-5.250508e-001	-1.703778e+000	-2.515694e+001	1.847579e+000
2295073000	-2.548069e+001	1.098419e+000	-5.406120e-001	-1.757414e+000	-5.308301e-001	-1.719326e+000	-2.526961e+001	2.138098e+000
2337572500	-2.536855e+001	1.160983e+000	-5.397362e-001	-1.800796e+000	-5.258890e-001	-1.760816e+000	-2.517257e+001	2.200618e+000
2380072000	-2.547010e+001	1.469906e+000	-5.405142e-001	-1.833235e+000	-5.286795e-001	-1.782734e+000	-2.516753e+001	1.799720e+000
2422571500	-2.545533e+001	1.169188e+000	-5.417056e-001	-1.850864e+000	-5.241215e-001	-1.806865e+000	-2.509281e+001	2.348202e+000
2465071000	-2.544318e+001	2.143568e+000	-5.409715e-001	-1.878269e+000	-5.300427e-001	-1.858308e+000	-2.518041e+001	2.709429e+000
2507570500	-2.517708e+001	2.493942e+000	-5.259656e-001	-1.868090e+000	-5.235058e-001	-1.858552e+000	-2.518340e+001	2.294192e+000
2550070000	-2.519071e+001	2.482588e+000	-5.250037e-001	-1.902671e+000	-5.240629e-001	-1.890404e+000	-2.509342e+001	2.566372e+000
2592569500	-2.513858e+001	2.255754e+000	-5.264322e-001	-1.924160e+000	-5.238650e-001	-1.926433e+000	-2.508224e+001	2.332778e+000
2635069000	-2.511679e+001	2.314534e+000	-5.259413e-001	-1.955406e+000	-5.233362e-001	-1.954044e+000	-2.506911e+001	2.684950e+000
2677568500	-2.509485e+001	2.395720e+000	-5.264642e-001	-1.996759e+000	-5.230710e-001	-1.995811e+000	-2.510137e+001	2.494923e+000
2720068000	-2.513324e+001	2.643626e+000	-5.308396e-001	-2.015308e+000	-5.211260e-001	-2.024805e+000	-2.506412e+001	2.670373e+000
2762567500	-2.520811e+001	2.360383e+000	-5.265764e-001	-2.069351e+000	-5.259392e-001	-2.052347e+000	-2.505725e+001	3.031325e+000
2805067000	-2.520151e+001	2.501722e+000	-5.279524e-001	-2.098353e+000	-5.205148e-001	-2.069540e+000	-2.506814e+001	2.628197e+000
2847566500	-2.511794e+001	2.866720e+000	-5.251760e-001	-2.118150e+000	-5.240196e-001	-2.094442e+000	-2.504302e+001	3.188425e+000
2890066000	-2.507238e+001	2.607912e+000	-5.277039e-001	-2.121170e+000	-5.214119e-001	-2.109071e+000	-2.499997e+001	3.005971e+000
2932565500	-2.513249e+001	3.355836e+000	-5.304067e-001	-2.175362e+000	-5.211393e-001	-2.167890e+000	-2.494685e+001	2.913928e+000
2975065000	-2.520067e+001	3.059040e+000	-5.285683e-001	-2.203097e+000	-5.209350e-001	-2.181502e+000	-2.489434e+001	3.521263e+000
3017564500	-2.519200e+001	3.341553e+000	-5.302179e-001	-2.218013e+000	-5.169582e-001	-2.238931e+000	-2.496335e+001	3.071102e+000
3060064000	-2.520419e+001	2.824875e+000	-5.296629e-001	-2.254740e+000	-5.178514e-001	-2.254154e+000	-2.492944e+001	2.986239e+000
3102563500	-2.516047e+001	3.145411e+000	-5.278344e-001	-2.290623e+000	-5.194763e-001	-2.290296e+000	-2.492494e+001	3.348880e+000
3145063000	-2.515214e+001	3.019439e+000	-5.275710e-001	-2.320166e+000	-5.140266e-001	-2.294230e+000	-2.493989e+001	3.098836e+000
3187562500	-2.513667e+001	3.000152e+000	-5.304122e-001	-2.368458e+000	-5.185778e-001	-2.330263e+000	-2.492434e+001	2.571708e+000
3230062000	-2.512919e+001	2.821839e+000	-5.265548e-001	-2.365950e+000	-5.155415e-001	-2.373344e+000	-2.486124e+001	2.784086e+000
3272561500	-2.517338e+001	2.479024e+000	-5.285822e-001	-2.424502e+000	-5.151666e-001	-2.409936e+000	-2.485085e+001	3.067469e+000
3315061000	-2.509399e+001	3.320594e+000	-5.294547e-001	-2.440627e+000	-5.176040e-001	-2.433114e+000	-2.489522e+001	3.647860e+000
3357560500	-2.514293e+001	3.242083e+000	-5.301321e-001	-2.475931e+000	-5.177409e-001	-2.476505e+000	-2.491723e+001	3.290995e+000
3400060000	-2.507072e+001	3.384101e+000	-5.296710e-001	-2.505198e+000	-5.166427e-001	-2.491127e+000	-2.489427e+001	3.118769e+000
3442559500	-2.505477e+001	2.893138e+000	-5.311921e-001	-2.539354e+000	-5.193582e-001	-2.515326e+000	-2.489407e+001	3.470723e+000
3485059000	-2.508052e+001	2.990914e+000	-5.275395e-001	-2.578010e+000	-5.158218e-001	-2.539536e+000	-2.482102e+001	3.477463e+000
3527558500	-2.515227e+001	3.205964e+000	-5.331183e-001	-2.602093e+000	-5.182489e-001	-2.568957e+000	-2.485481e+001	3.264639e+000
3570058000	-2.506608e+001	2.998867e+000	-5.278371e-001	-2.625708e+000	-5.184575e-001	-2.609547e+000	-2.487768e+001	2.973939e+000
3612557500	-2.512281e+001	3.893760e+000	-5.335143e-001	-2.649021e+000	-5.170442e-001	-2.639456e+000	-2.481647e+001	3.386641e+000
3655057000	-2.514902e+001	3.619537e+000	-5.310217e-001	-2.681975e+000	-5.218022e-001	-2.676694e+000	-2.480881e+001	3.840462e+000
3697556500	-2.505334e+001	2.890594e+000	-5.279677e-001	-2.717261e+000	-5.174486e-001	-2.721689e+000	-2.482907e+001	3.458872e+000
3740056000	-2.522137e+001	3.666496e+000	-5.331466e-001	-2.756611e+000	-5.201581e-001	-2.719707e+000	-2.488443e+001	4.273252e+000
3782555500	-2.507422e+001	3.310851e+000	-5.310017e-001	-2.765075e+000	-5.196068e-001	-2.778276e+000	-2.486561e+001	3.628306e+000
3825055000	-2.514691e+001	3.118909e+000	-5.305652e-001	-2.816055e+000	-5.167902e-001	-2.786949e+000	-2.485914e+001	3.851807e+000
3867554500	-2.509234e+001	3.807893e+000	-5.324339e-001	-2.848402e+000	-5.201678e-001	-2.826042e+000	-2.488926e+001	3.764511e+000
3910054000	-2.508412e+001	3.307339e+000	-5.308214e-001	-2.882177e+000	-5.158660e-001	-2.874407e+000	-2.482064e+001	3.571252e+000
3952553500	-2.506473e+001	3.178117e+000	-5.335659e-001	-2.915891e+000	-5.189121e-001	-2.880903e+000	-2.481029e+001	4.060089e+000
3995053000	-2.506804e+001	3.543265e+000	-5.330276e-001	-2.949063e+000	-5.196929e-001	-2.946891e+000	-2.487501e+001	3.868050e+000
4037552500	-2.516430e+001	3.815413e+000	-5.340957e-001	-2.964753e+000	-5.170079e-001	-2.968473e+000	-2.473624e+001	3.539281e+000
4080052000	-2.510493e+001	3.692957e+000	-5.327008e-001	-2.996708e+000	-5.219057e-001	-2.989257e+000	-2.490517e+001	4.326031e+000
4122551500	-2.502052e+001	3.591120e+000	-5.322128e-001	-3.033915e+000	-5.196167e-001	-3.008790e+000	-2.482300e+001	3.873036e+000
4165051000	-2.511479e+001	3.786556e+000	-5.360893e-001	-3.064689e+000	-5.215550e-001	-3.021182e+000	-2.486356e+001	4.115733e+000
4207550500	-2.508177e+001	4.246034e+000	-5.336817e-001	-3.090144e+000	-5.219568e-001	-3.088998e+000	-2.485811e+001	4.334082e+000
4250050000	-2.503135e+001	4.056165e+000	-5.340775e-001	-3.129744e+000	-5.231944e-001	-3.096515e+000	-2.480743e+001	3.252167e+000
4292549500	-2.515318e+001	3.954265e+000	-5.351918e-001	-3.167368e+000	-5.237819e-001	-3.142837e+000	-2.487586e+001	3.946100e+000
4335049000	-2.502034e+001	3.637857e+000	-5.357108e-001	-3.173276e+000	-5.228702e-001	-3.155454e+000	-2.478516e+001	3.707384e+000
4377548500	-2.513217e+001	3.955674e+000	-5.364206e-001	-3.198229e+000	-5.231107e-001	-3.186004e+000	-2.489565e+001	4.127229e+000
4420048000	-2.503128e+001	3.721490e+000	-5.371469e-001	-3.268445e+000	-5.241046e-001	-3.205842e+000	-2.482473e+001	4.265010e+000
4462547500	-2.508228e+001	3.477633e+000	-5.365531e-001	-3.236029e+000	-5.252382e-001	-3.260435e+000	-2.486417e+001	3.688929e+000
4505047000	-2.509691e+001	3.684349e+000	-5.402803e-001	-3.282427e+000	-5.253688e-001	-3.259001e+000	-2.481595e+001	4.354419e+000
4547546500	-2.505835e+001	3.690083e+000	-5.368800e-001	-3.316680e+000	-5.197656e-001	-3.313174e+000	-2.479553e+001	4.025480e+000
4590046000	-2.512285e+001	4.121694e+000	-5.383313e-001	-3.369035e+000	-5.231561e-001	-3.341633e+000	-2.484018e+001	4.507609e+000
4632545500	-2.508807e+001	3.670771e+000	-5.378513e-001	-3.395356e+000	-5.259473e-001	-3.353311e+000	-2.477809e+001	4.551936e+000
4675045000	-2.506626e+001	4.294591e+000	-5.331899e-001	-3.423372e+000	-5.270306e-001	-3.405806e+000	-2.480267e+001	4.358010e+000
4717544500	-2.504674e+001	4.168165e+000	-5.396375e-001	-3.430809e+000	-5.202592e-001	-3.432672e+000	-2.481379e+001	4.452374e+000
4760044000	-2.504464e+001	3.980102e+000	-5.384392e-001	-3.471861e+000	-5.209361e-001	-3.466044e+000	-2.481858e+001	4.775979e+000
4802543500	-2.507939e+001	3.851050e+000	-5.370931e-001	-3.493415e+000	-5.221751e-001	-3.492141e+000	-2.479374e+001	4.464820e+000
4845043000	-2.506532e+001	4.586504e+000	-5.413974e-001	-3.547045e+000	-5.246942e-001	-3.504644e+000	-2.479560e+001	4.547049e+000
4887542500	-2.501607e+001	4.817137e+000	-5.364118e-001	-3.560053e+000	-5.288804e-001	-3.517034e+000	-2.482150e+001	4.406779e+000
4930042000	-2.509974e+001	4.684868e+000	-5.403191e-001	-3.578313e+000	-5.259397e-001	-3.579690e+000	-2.478961e+001	4.079043e+000
4972541500	-2.511593e+001	4.618996e+000	-5.407229e-001	-3.627459e+000	-5.272458e-001	-3.599498e+000	-2.475111e+001	4.796955e+000
5015041000	-2.496088e+001	4.853825e+000	-5.416587e-001	-3.624536e+000	-5.241634e-001	-3.637290e+000	-2.480987e+001	5.178055e+000
5057540500	-2.503553e+001	4.515034e+000	-5.388197e-001	-3.708675e+000	-5.255721e-001	-3.690904e+000	-2.472113e+001	5.027649e+000
5100040000	-2.500836e+001	4.543697e+000	-5.369856e-001	-3.691311e+000	-5.259299e-001	-3.688876e+000	-2.483540e+001	4.943218e+000
5142539500	-2.502222e+001	4.622710e+000	-5.409489e-001	-3.730950e+000	-5.198116e-001	-3.726949e+000	-2.470961e+001	4.524252e+000
5185039000	-2.500482e+001	4.292610e+000	-5.351388e-001	-3.769719e+000	-5.243700e-001	-3.745597e+000	-2.475642e+001	5.040892e+000
5227538500	-2.494746e+001	5.096272e+000	-5.428882e-001	-3.767509e+000	-5.248913e-001	-3.798177e+000	-2.473037e+001	4.377456e+000
5270038000	-2.507006e+001	4.658992e+000	-5.459178e-001	-3.846278e+000	-5.236792e-001	-3.829317e+000	-2.470524e+001	4.620255e+000
5312537500	-2.502127e+001	4.677729e+000	-5.387944e-001	-3.845653e+000	-5.211733e-001	-3.845778e+000	-2.477198e+001	5.162778e+000
5355037000	-2.496834e+001	5.256203e+000	-5.367299e-001	-3.846495e+000	-5.252917e-001	-3.877638e+000	-2.476151e+001	4.664108e+000
5397536500	-2.495996e+001	4.299387e+000	-5.386746e-001	-3.939384e+000	-5.301032e-001	-3.895567e+000	-2.482385e+001	4.927891e+000
5440036000	-2.498290e+001	5.288582e+000	-5.418302e-001	-3.928664e+000	-5.301956e-001	-3.955724e+000	-2.478759e+001	4.964396e+000
5482535500	-2.499834e+001	4.747351e+000	-5.393249e-001	-3.984298e+000	-5.264065e-001	-3.987742e+000	-2.473378e+001	4.623699e+000
5525035000	-2.503155e+001	5.140267e+000	-5.408106e-001	-4.023133e+000	-5.272263e-001	-4.015816e+000	-2.482068e+001	5.037727e+000
5567534500	-2.498490e+001	5.405361e+000	-5.406192e-001	-4.025771e+000	-5.284721e-001	-4.049460e+000	-2.478721e+001	4.803093e+000
5610034000	-2.506432e+001	4.995050e+000	-5.450358e-001	-4.077559e+000	-5.259066e-001	-4.084781e+000	-2.475715e+001	4.958760e+000
5652533500	-2.496405e+001	5.421615e+000	-5.367124e-001	-4.070075e+000	-5.293341e-001	-4.115805e+000	-2.471265e+001	5.037428e+000
5695033000	-2.503469e+001	5.281400e+000	-5.455877e-001	-4.130647e+000	-5.240947e-001	-4.143885e+000	-2.471719e+001	4.531309e+000
5737532500	-2.510426e+001	4.706066e+000	-5.382971e-001	-4.140926e+000	-5.271528e-001	-4.152207e+000	-2.481683e+001	5.460331e+000
5780032000	-2.493333e+001	5.509156e+000	-5.418257e-001	-4.210281e+000	-5.281225e-001	-4.222721e+000	-2.477242e+001	4.587735e+000
5822531500	-2.495488e+001	5.263936e+000	-5.431764e-001	-4.232846e+000	-5.276609e-001	-4.242026e+000	-2.477418e+001	4.901792e+000
5865031000	-2.498812e+001	5.691590e+000	-5.453985e-001	-4.256256e+000	-5.327033e-001	-4.273033e+000	-2.479829e+001	5.242197e+000
5907530500	-2.494799e+001	5.390371e+000	-5.447546e-001	-4.281749e+000	-5.314941e-001	-4.343393e+000	-2.479349e+001	4.549214e+000
5950030000	-2.505794e+001	5.583423e+000	-5.461322e-001	-4.295152e+000	-5.310900e-001	-4.359497e+000	-2.482049e+001	5.379111e+000
5992529500	-2.500901e+001	5.921469e+000	-5.464568e-001	-4.333842e+000	-5.373840e-001	-4.376743e+000	-2.472048e+001	4.849224e+000
6035029000	-2.503569e+001	4.866188e+000	-5.396121e-001	-4.341782e+000	-5.363652e-001	-4.433700e+000	-2.486025e+001	4.718835e+000
6077528500	-2.498861e+001	5.733889e+000	-5.436954e-001	-4.425492e+000	-5.371337e-001	-4.455048e+000	-2.475531e+001	5.337308e+000
6120028000	-2.491042e+001	5.520186e+000	-5.455341e-001	-4.426177e+000	-5.401624e-001	-4.477196e+000	-2.480428e+001	4.430126e+000
6162527500	-2.501129e+001	5.770225e+000	-5.462052e-001	-4.472088e+000	-5.399470e-001	-4.521667e+000	-2.483286e+001	5.100288e+000
6205027000	-2.488615e+001	5.823225e+000	-5.440514e-001	-4.466021e+000	-5.392660e-001	-4.547831e+000	-2.478097e+001	4.672604e+000
6247526500	-2.506222e+001	5.034428e+000	-5.560842e-001	-4.517248e+000	-5.423992e-001	-4.587174e+000	-2.495978e+001	4.766662e+000
6290026000	-2.506572e+001	5.310331e+000	-5.545667e-001	-4.573323e+000	-5.441138e-001	-4.589455e+000	-2.491332e+001	5.370016e+000
6332525500	-2.509542e+001	5.121802e+000	-5.557771e-001	-4.611972e+000	-5.504234e-001	-4.661884e+000	-2.502612e+001	4.872775e+000
6375025000	-2.507738e+001	5.743082e+000	-5.585763e-001	-4.614703e+000	-5.509740e-001	-4.669900e+000	-2.491008e+001	5.236886e+000
